hour, t(sec), P1 (kW), Q1 (kvar), P2 (kW), Q2 (kvar), P3 (kW), Q3 (kvar)
0, 8.00946, -1878.66, -1031.32, -1899.12, -1159.96, -1777.46, -1113.42
0, 8.03786, -1882.3, -1034.51, -1901.86, -1162.79, -1780.96, -1115.65
0, 8.08018, -1875.37, -1027.46, -1895.09, -1156.71, -1773.26, -1109.23
0, 8.17850, -1888, -1038.68, -1906.8, -1167.56, -1785.76, -1119.47
0, 8.18849, -1878.11, -1029.01, -1897.1, -1158.85, -1775.13, -1110.44
0, 8.18851, -1886.37, -1035.49, -1905.5, -1166.32, -1782.6, -1117.53
0, 8.26393, -1883.14, -1031.78, -1902.45, -1163.54, -1778.65, -1114.45
0, 8.26397, -1880.57, -1028.59, -1900.03, -1161.36, -1775.29, -1111.9
0, 8.26702, -1887.87, -1034.21, -1907.48, -1167.98, -1781.8, -1118.14
0, 8.27672, -1883.53, -1029.51, -1903.32, -1164.21, -1776.74, -1114.07
0, 8.45795, -1876.45, -1022.28, -1896.39, -1158.01, -1768.84, -1107.49
0, 8.52699, -1878.07, -1022.83, -1898.13, -1159.55, -1769.67, -1108.64
0, 8.57452, -1877.48, -1021.46, -1897.72, -1159.14, -1768.34, -1107.9
0, 8.57953, -1877.33, -1021.28, -1896.7, -1158.59, -1768.07, -1106.78
0, 8.57957, -1877.61, -1020.65, -1897.1, -1158.93, -1767.56, -1106.74
0, 8.57958, -1877.97, -1020.1, -1897.62, -1159.36, -1767.16, -1106.82
0, 8.57961, -1883.49, -1024.95, -1902.23, -1163.86, -1772.53, -1110.71
0, 8.58169, -1880.57, -1021.54, -1899.51, -1161.38, -1768.91, -1107.93
0, 8.58172, -1876.56, -1017.1, -1895.66, -1157.91, -1764.13, -1104.12
0, 8.58174, -1881.39, -1020.47, -1900.58, -1162.31, -1768.12, -1108.08
0, 8.58175, -1878.45, -1017.04, -1897.87, -1159.81, -1764.49, -1105.31
0, 8.58180, -1876.37, -1014.31, -1895.93, -1158.06, -1761.63, -1103.2
0, 8.58883, -1879.08, -1015.83, -1898.77, -1160.58, -1763.54, -1105.33
0, 8.59526, -1874.34, -1010.79, -1894.25, -1156.48, -1758.1, -1100.95
0, 8.59529, -1873.32, -1008.99, -1893.36, -1155.67, -1756.28, -1099.76
0, 8.59531, -1876.94, -1011.31, -1897.1, -1158.99, -1759.09, -1102.69
0, 8.59533, -1875.25, -1008.98, -1895.62, -1157.6, -1756.69, -1101.01
0, 8.59536, -1880.52, -1012.76, -1900.99, -1162.39, -1761.14, -1105.38
0, 8.59537, -1883.09, -1014.22, -1903.75, -1164.79, -1762.98, -1107.47
0, 8.59538, -1877.15, -1008.9, -1896.95, -1159.1, -1756.94, -1101.22
0, 8.59541, -1881.97, -1012.29, -1901.86, -1163.48, -1760.95, -1105.19
0, 8.59544, -1873.34, -1003.79, -1893.46, -1155.93, -1751.61, -1097.36
0, 8.59547, -1872.6, -1002.27, -1892.87, -1155.37, -1750.1, -1096.45
0, 8.59549, -1872.75, -1001.54, -1893.18, -1155.62, -1749.49, -1096.34
0, 8.59551, -1872.44, -1000.4, -1893.02, -1155.44, -1748.42, -1095.83
0, 8.59552, -1871.92, -999.902, -1891.65, -1154.58, -1747.79, -1094.4
0, 8.59554, -1875.08, -1001.81, -1894.89, -1157.48, -1750.14, -1096.89
0, 8.59557, -1873.91, -999.947, -1893.92, -1156.55, -1748.26, -1095.66
0, 8.59559, -1872.12, -997.501, -1892.3, -1155.07, -1745.71, -1093.85
0, 8.59560, -1873.76, -998.075, -1894.07, -1156.63, -1746.57, -1095.03
0, 8.59562, -1875.02, -998.334, -1895.49, -1157.86, -1747.07, -1095.91
0, 8.59564, -1872.34, -995.129, -1893.02, -1155.6, -1743.67, -1093.35
0, 8.59565, -1873.14, -994.954, -1893.95, -1156.41, -1743.68, -1093.78
0, 8.59567, -1871.12, -992.33, -1892.12, -1154.73, -1740.94, -1091.8
0, 8.59569, -1876.81, -997.285, -1896.87, -1159.36, -1746.44, -1095.78
0, 8.59572, -1878.98, -998.383, -1899.2, -1161.4, -1747.88, -1097.48
0, 8.59574, -1867.27, -987.152, -1887.71, -1151.12, -1735.45, -1086.92
0, 8.59575, -1878.12, -996.711, -1897.62, -1160.34, -1746.13, -1095.49
0, 8.59577, -1878.11, -995.872, -1897.77, -1160.43, -1745.39, -1095.26
0, 8.59579, -1867.17, -985.318, -1887.04, -1150.84, -1733.72, -1085.37
0, 8.59580, -1878.54, -995.331, -1897.46, -1160.51, -1744.92, -1094.39
0, 8.59582, -1881.13, -996.788, -1900.2, -1162.91, -1746.76, -1096.44
0, 8.59584, -1873.3, -989.002, -1892.59, -1156.08, -1738.22, -1089.32
0, 8.59585, -1880.69, -995.498, -1899.04, -1162.22, -1745.45, -1094.84
0, 8.59587, -1874.34, -989.019, -1892.88, -1156.68, -1738.37, -1088.99
0, 8.59589, -1869.75, -984.94, -1887.45, -1152.21, -1733.71, -1083.99
0, 8.59590, -1871.16, -986.106, -1887.91, -1153.03, -1734.94, -1084.16
0, 8.59592, -1870.06, -984.286, -1886.96, -1152.16, -1733.09, -1082.95
0, 8.59593, -1872.32, -985.42, -1889.36, -1154.27, -1734.58, -1084.69
0, 8.59595, -1875.38, -988.088, -1891.54, -1156.57, -1737.52, -1086.41
0, 8.59597, -1878.28, -989.804, -1894.57, -1159.25, -1739.65, -1088.72
0, 8.59598, -1878.96, -989.571, -1895.43, -1159.96, -1739.6, -1089.12
0, 8.59600, -1877.26, -987.221, -1893.91, -1158.56, -1737.16, -1087.4
0, 8.59601, -1871.56, -982.121, -1887.34, -1153.1, -1731.34, -1081.36
0, 8.59603, -1872.04, -981.686, -1887.95, -1153.63, -1731.05, -1081.53
0, 8.59605, -1866.08, -975.568, -1882.19, -1148.47, -1724.36, -1076.06
0, 8.59606, -1875.48, -983.017, -1891.71, -1156.9, -1732.97, -1084.11
0, 8.59607, -1874.32, -981.989, -1889.71, -1155.47, -1731.74, -1082.14
0, 8.59609, -1878.18, -984.519, -1893.65, -1158.98, -1734.79, -1085.24
0, 8.59610, -1872.97, -979.926, -1887.66, -1153.98, -1729.55, -1079.77
0, 8.59629, -1869.82, -977.076, -1883.6, -1150.77, -1726.26, -1075.95
0, 8.59631, -1876.43, -982.045, -1890.31, -1156.73, -1732.05, -1081.5
0, 8.59632, -1866.81, -972.704, -1880.9, -1148.32, -1721.73, -1072.81
0, 8.59634, -1869.26, -974, -1883.46, -1150.59, -1723.39, -1074.69
0, 8.59635, -1875.13, -978.327, -1889.46, -1155.89, -1728.48, -1079.61
0, 8.59637, -1865.22, -968.763, -1879.81, -1147.25, -1717.91, -1070.73
0, 8.59638, -1870.49, -973.347, -1884.14, -1151.49, -1723, -1074.33
0, 8.59640, -1876.54, -978.647, -1889.27, -1156.43, -1728.91, -1078.66
0, 8.59642, -1868.07, -971.15, -1879.97, -1148.53, -1720.37, -1070.24
0, 8.59653, -1877.62, -978.723, -1889.63, -1157.09, -1729.12, -1078.4
0, 8.59660, -1864.56, -967.173, -1875.76, -1145.13, -1716.01, -1065.94
0, 8.59665, -1876.35, -976.705, -1887.63, -1155.66, -1726.97, -1076.05
0, 8.59666, -1874.07, -973.89, -1885.56, -1153.76, -1724.01, -1073.86
0, 8.59667, -1871.25, -970.556, -1882.91, -1151.38, -1720.45, -1071.16
0, 8.59668, -1863.8, -963.121, -1875.65, -1144.9, -1712.26, -1064.37
0, 8.59669, -1876, -973.023, -1887.95, -1155.8, -1723.65, -1074.85
0, 8.59669, -1876.55, -972.686, -1888.66, -1156.39, -1723.48, -1075.12
0, 8.59670, -1872.96, -968.695, -1885.28, -1153.33, -1719.19, -1071.78
0, 8.59671, -1874.36, -969.06, -1886.8, -1154.67, -1719.8, -1072.74
0, 8.59672, -1873.68, -968.44, -1885.29, -1153.67, -1719.04, -1071.2
0, 8.59673, -1872.78, -966.794, -1884.52, -1152.97, -1717.38, -1070.15
0, 8.59674, -1861.91, -956.371, -1873.87, -1143.49, -1705.81, -1060.39
0, 8.59675, -1872.23, -964.596, -1884.29, -1152.71, -1715.31, -1069.19
0, 8.59676, -1863.55, -956.134, -1875.84, -1145.16, -1705.96, -1061.38
0, 8.59677, -1861.25, -953.268, -1873.69, -1143.23, -1702.92, -1059.13
0, 8.59678, -1863.29, -954.209, -1875.87, -1145.14, -1704.19, -1060.66
0, 8.59679, -1864.65, -954.575, -1877.4, -1146.45, -1704.82, -1061.65
0, 8.59682, -1869.33, -958.649, -1881.18, -1150.17, -1709.36, -1064.77
0, 8.59683, -1860.85, -950.37, -1872.93, -1142.81, -1700.2, -1057.15
0, 8.59684, -1863.8, -952.1, -1875.98, -1145.51, -1702.36, -1059.45
0, 8.59686, -1868, -954.96, -1880.32, -1149.33, -1705.8, -1062.92
0, 8.59687, -1859.79, -947.724, -1871.32, -1141.69, -1697.54, -1054.79
0, 8.59688, -1862.67, -949.396, -1874.3, -1144.33, -1699.63, -1057.04
0, 8.59689, -1870.42, -955.381, -1882.21, -1151.28, -1706.62, -1063.64
0, 8.59690, -1860.13, -946.314, -1871.1, -1141.8, -1696.28, -1053.66
0, 8.59691, -1872.85, -957.436, -1882.85, -1152.61, -1708.79, -1063.78
0, 8.59693, -1860.75, -946.774, -1869.95, -1141.53, -1696.65, -1052.22
0, 8.59695, -1867.28, -952.435, -1875.51, -1146.86, -1702.98, -1056.88
0, 8.59696, -1860.84, -945.959, -1869.3, -1141.3, -1695.86, -1051.06
0, 8.59698, -1865.84, -949.497, -1874.39, -1145.81, -1700.07, -1055.16
0, 8.59699, -1859.19, -943.641, -1866.94, -1139.56, -1693.37, -1048.41
0, 8.59701, -1870.01, -952.295, -1877.85, -1149.2, -1703.37, -1057.64
0, 8.59702, -1871.17, -952.497, -1879.17, -1150.33, -1703.81, -1058.45
0, 8.59704, -1860.32, -942.135, -1868.57, -1140.88, -1692.29, -1048.76
0, 8.59705, -1867.78, -947.837, -1876.14, -1147.57, -1698.95, -1055.05
0, 8.59706, -1866.16, -945.605, -1874.71, -1146.25, -1696.64, -1053.44
0, 8.59708, -1859.79, -939.171, -1868.54, -1140.75, -1689.56, -1047.64
0, 8.59708, -1864.25, -943.026, -1872.07, -1144.26, -1693.85, -1050.52
0, 8.59710, -1866.33, -944.028, -1874.3, -1146.2, -1695.19, -1052.12
0, 8.59711, -1866.49, -943.353, -1874.64, -1146.46, -1694.63, -1052.07
0, 8.59713, -1867.35, -944.071, -1874.64, -1146.81, -1695.38, -1051.86
0, 8.59714, -1863, -939.433, -1870.48, -1143.09, -1690.33, -1047.85
0, 8.59715, -1868.62, -943.493, -1876.17, -1148.14, -1695.13, -1052.46
0, 8.59718, -1867.53, -942.538, -1874.29, -1146.79, -1693.99, -1050.62
0, 8.59719, -1868.1, -942.983, -1873.95, -1146.88, -1694.41, -1050.11
0, 8.59720, -1857.73, -933.06, -1863.8, -1137.87, -1683.36, -1040.83
0, 8.59721, -1869.05, -942.931, -1874.16, -1147.42, -1694.48, -1049.7
0, 8.59722, -1863.85, -937.571, -1869.19, -1142.96, -1688.62, -1045
0, 8.59724, -1859.72, -933.12, -1865.24, -1139.44, -1683.77, -1041.17
0, 8.59725, -1860.49, -933.735, -1865.12, -1139.7, -1684.39, -1040.83
0, 26.82919, -1845.98, -921.005, -1849.8, -1126.56, -1669.84, -1027.2
0, 26.85482, -1847.09, -921.952, -1850.88, -1127.54, -1670.91, -1028.13
0, 26.92019, -1836, -912.289, -1839.86, -1117.83, -1659.89, -1018.51
0, 27.01694, -1849.92, -924.414, -1853.68, -1130.02, -1673.71, -1030.58
0, 27.02334, -1844.67, -919.867, -1848.52, -1125.43, -1668.55, -1026.08
0, 27.02336, -1842.7, -918.128, -1846.53, -1123.69, -1666.56, -1024.33
0, 27.08852, -1837.93, -913.982, -1841.8, -1119.52, -1661.83, -1020.21
0, 27.08855, -1836.66, -912.855, -1840.51, -1118.41, -1660.54, -1019.07
0, 27.08858, -1837.08, -913.221, -1840.92, -1118.78, -1660.95, -1019.43
0, 27.09133, -1839.33, -915.169, -1843.14, -1120.74, -1663.18, -1021.36
0, 27.26927, -1836.92, -913.089, -1840.78, -1118.64, -1660.81, -1019.31
0, 27.33650, -1842.67, -918.072, -1846.45, -1123.66, -1666.48, -1024.24
0, 27.38328, -1839.02, -914.927, -1842.88, -1120.48, -1662.91, -1021.15
0, 27.38331, -1849.59, -924.132, -1853.36, -1129.73, -1673.39, -1030.3
0, 27.38333, -1839.67, -915.488, -1843.51, -1121.04, -1663.55, -1021.7
0, 27.38335, -1844.43, -919.611, -1848.2, -1125.2, -1668.24, -1025.78
0, 27.38337, -1836.18, -912.442, -1840.04, -1117.99, -1660.07, -1018.66
0, 27.38339, -1847.43, -922.238, -1851.21, -1127.83, -1671.24, -1028.41
0, 27.38342, -1841.78, -917.342, -1845.64, -1122.89, -1665.67, -1023.57
0, 27.38343, -1840.86, -916.519, -1844.69, -1122.08, -1664.72, -1022.72
0, 27.38345, -1849.83, -924.339, -1853.6, -1129.94, -1673.63, -1030.51
0, 27.38349, -1841.42, -917.019, -1845.26, -1122.58, -1665.29, -1023.22
0, 27.38350, -1843.74, -919.02, -1847.54, -1124.6, -1667.57, -1025.2
0, 27.38358, -1847.56, -922.351, -1851.33, -1127.95, -1671.36, -1028.52
0, 27.38360, -1840.24, -915.98, -1844.08, -1121.54, -1664.11, -1022.19
0, 27.38361, -1837.99, -914.024, -1841.85, -1119.58, -1661.87, -1020.24
0, 27.38362, -1837.07, -913.217, -1840.92, -1118.77, -1660.95, -1019.43
0, 27.38366, -1843.94, -919.195, -1847.74, -1124.78, -1667.77, -1025.38
0, 27.38367, -1840.63, -916.328, -1844.48, -1121.88, -1664.51, -1022.55
0, 27.38369, -1846.71, -921.601, -1850.47, -1127.2, -1670.5, -1027.76
0, 27.38373, -1835.64, -911.975, -1839.5, -1117.52, -1659.53, -1018.2
0, 27.38375, -1842.04, -917.518, -1845.82, -1123.11, -1665.85, -1023.69
0, 27.38377, -1841.46, -917.045, -1845.29, -1122.61, -1665.32, -1023.25
0, 27.38379, -1842.6, -918.033, -1846.41, -1123.61, -1666.45, -1024.22
0, 27.38380, -1846.03, -921.015, -1849.81, -1126.6, -1669.84, -1027.19
0, 27.38382, -1845.06, -920.184, -1848.87, -1125.76, -1668.9, -1026.38
0, 27.38383, -1841.71, -917.274, -1845.56, -1122.83, -1665.59, -1023.49
0, 27.38387, -1836.4, -912.646, -1840.28, -1118.18, -1660.31, -1018.88
0, 27.38389, -1840.1, -915.836, -1843.9, -1121.41, -1663.93, -1022.02
0, 27.38390, -1847.24, -922.076, -1851.02, -1127.66, -1671.05, -1028.25
0, 27.38391, -1849.65, -924.178, -1853.41, -1129.77, -1673.45, -1030.34
0, 27.38393, -1849.36, -923.941, -1853.15, -1129.53, -1673.18, -1030.12
0, 27.38394, -1836.83, -913.016, -1840.69, -1118.56, -1660.72, -1019.24
0, 27.38395, -1840.92, -916.55, -1844.72, -1122.13, -1664.75, -1022.73
0, 27.38396, -1836.09, -912.377, -1839.97, -1117.92, -1660, -1018.61
0, 27.38399, -1844.42, -919.617, -1848.22, -1125.2, -1668.25, -1025.8
0, 27.38400, -1835.97, -912.263, -1839.83, -1117.81, -1659.86, -1018.48
0, 27.38401, -1838.79, -914.701, -1842.61, -1120.27, -1662.64, -1020.9
0, 27.38403, -1841.47, -917.034, -1845.27, -1122.61, -1665.3, -1023.22
0, 27.38404, -1835.82, -912.148, -1839.71, -1117.68, -1659.74, -1018.39
0, 27.38406, -1839.06, -914.935, -1842.87, -1120.51, -1662.91, -1021.13
0, 27.38407, -1842.94, -918.314, -1846.73, -1123.9, -1666.76, -1024.49
0, 27.38408, -1836.99, -913.169, -1840.88, -1118.71, -1660.9, -1019.41
0, 27.38409, -1842.24, -917.697, -1846.02, -1123.28, -1666.06, -1023.87
0, 27.38410, -1839.47, -915.311, -1843.32, -1120.87, -1663.35, -1021.53
0, 27.38411, -1844.95, -920.058, -1848.71, -1125.65, -1668.75, -1026.22
0, 27.38412, -1841.72, -917.283, -1845.57, -1122.84, -1665.6, -1023.5
0, 27.38414, -1835.75, -912.083, -1839.64, -1117.62, -1659.66, -1018.33
0, 27.38415, -1837.76, -913.803, -1841.58, -1119.37, -1661.62, -1020
0, 27.38416, -1835.65, -911.981, -1839.51, -1117.53, -1659.54, -1018.21
0, 27.38429, -1841.25, -916.828, -1845.03, -1122.41, -1665.06, -1023
0, 27.38430, -1845.24, -920.32, -1849.02, -1125.91, -1669.05, -1026.49
0, 27.38432, -1843.15, -918.523, -1846.98, -1124.09, -1667.01, -1024.73
0, 27.38433, -1842.36, -917.826, -1846.18, -1123.39, -1666.21, -1024.03
0, 27.38435, -1836.76, -912.968, -1840.65, -1118.51, -1660.67, -1019.21
0, 27.38437, -1844.64, -919.804, -1848.43, -1125.39, -1668.46, -1025.99
0, 27.38442, -1847.64, -922.423, -1851.41, -1128.02, -1671.45, -1028.59
0, 27.38444, -1842.53, -917.999, -1846.39, -1123.55, -1666.41, -1024.22
0, 27.38445, -1841.53, -917.104, -1845.36, -1122.67, -1665.39, -1023.31
0, 27.38447, -1835.5, -911.867, -1839.39, -1117.4, -1659.42, -1018.11
0, 27.38449, -1846.55, -921.467, -1850.33, -1127.06, -1670.36, -1027.64
0, 27.38450, -1837.16, -913.3, -1841.02, -1118.85, -1661.05, -1019.52
0, 27.38452, -1838.18, -914.173, -1842.01, -1119.74, -1662.04, -1020.38
0, 27.38454, -1836.38, -912.616, -1840.24, -1118.17, -1660.27, -1018.84
0, 27.38455, -1843.99, -919.237, -1847.79, -1124.82, -1667.82, -1025.42
0, 27.38457, -1835.35, -911.718, -1839.21, -1117.26, -1659.24, -1017.94
0, 27.38458, -1839.22, -915.069, -1843.03, -1120.64, -1663.06, -1021.26
0, 27.38460, -1839.79, -915.577, -1843.61, -1121.14, -1663.64, -1021.78
0, 27.38461, -1838.19, -914.191, -1842.04, -1119.75, -1662.06, -1020.41
0, 27.38463, -1839.39, -915.228, -1843.21, -1120.79, -1663.24, -1021.43
0, 27.38465, -1845.6, -920.624, -1849.36, -1126.22, -1669.39, -1026.78
0, 27.38466, -1837.09, -913.238, -1840.95, -1118.79, -1660.98, -1019.46
0, 27.38482, -1836.59, -912.797, -1840.44, -1118.35, -1660.47, -1019.01
0, 27.38484, -1836.71, -912.898, -1840.56, -1118.45, -1660.59, -1019.11
0, 27.38486, -1839.08, -914.949, -1842.89, -1120.52, -1662.92, -1021.14
0, 27.38487, -1843.24, -918.574, -1847.02, -1124.16, -1667.06, -1024.75
0, 27.38489, -1844.71, -919.868, -1848.51, -1125.45, -1668.54, -1026.05
0, 27.38491, -1846.25, -921.218, -1850.04, -1126.8, -1670.07, -1027.4
0, 27.38492, -1840.04, -915.828, -1843.92, -1121.37, -1663.94, -1022.06
0, 27.38494, -1839.8, -915.588, -1843.63, -1121.15, -1663.66, -1021.79
0, 27.38496, -1847.41, -922.223, -1851.19, -1127.81, -1671.22, -1028.4
0, 27.38497, -1845.03, -920.162, -1848.85, -1125.73, -1668.88, -1026.36
0, 27.38498, -1848.38, -923.067, -1852.14, -1128.66, -1672.18, -1029.23
0, 27.38500, -1835.96, -912.259, -1839.83, -1117.8, -1659.86, -1018.48
0, 27.38502, -1847.03, -921.887, -1850.81, -1127.48, -1670.84, -1028.06
0, 27.38503, -1841.1, -916.751, -1844.97, -1122.3, -1664.99, -1022.98
0, 27.38505, -1843.89, -919.145, -1847.68, -1124.73, -1667.71, -1025.32
0, 27.38507, -1847.23, -922.065, -1851, -1127.66, -1671.04, -1028.23
0, 27.38508, -1835.39, -911.76, -1839.26, -1117.3, -1659.29, -1017.98
0, 27.38510, -1836.92, -913.073, -1840.75, -1118.63, -1660.78, -1019.28
0, 27.38512, -1848.8, -923.437, -1852.57, -1129.04, -1672.6, -1029.61
0, 27.38513, -1842.34, -917.837, -1846.21, -1123.39, -1666.23, -1024.06
0, 27.38515, -1844.6, -919.771, -1848.39, -1125.35, -1668.43, -1025.95
0, 27.38516, -1837.06, -913.211, -1840.91, -1118.76, -1660.95, -1019.43
0, 27.38518, -1846.01, -920.997, -1849.79, -1126.58, -1669.82, -1027.18
0, 27.38519, -1848.26, -922.966, -1852.03, -1128.56, -1672.07, -1029.14
0, 27.38520, -1848.4, -923.103, -1852.19, -1128.69, -1672.22, -1029.28
0, 27.38522, -1849.01, -923.631, -1852.79, -1129.22, -1672.83, -1029.81
0, 27.38523, -1837.67, -913.75, -1841.53, -1119.3, -1661.56, -1019.97
0, 27.38524, -1836.31, -912.556, -1840.17, -1118.11, -1660.2, -1018.78
0, 27.38526, -1837.88, -913.911, -1841.71, -1119.48, -1661.74, -1020.11
0, 27.38528, -1844.19, -919.396, -1847.96, -1124.99, -1667.99, -1025.56
0, 27.38529, -1848.84, -923.467, -1852.6, -1129.07, -1672.63, -1029.62
0, 27.38531, -1844.79, -919.961, -1848.62, -1125.52, -1668.65, -1026.17
0, 27.38532, -1837.35, -913.465, -1841.2, -1119.01, -1661.24, -1019.68
0, 27.38534, -1842.96, -918.324, -1846.74, -1123.91, -1666.77, -1024.49
0, 27.38536, -1835.6, -911.938, -1839.46, -1117.48, -1659.49, -1018.16
0, 27.38537, -1839.18, -915.038, -1842.99, -1120.61, -1663.02, -1021.23
0, 27.38539, -1839.03, -914.921, -1842.87, -1120.48, -1662.9, -1021.13
0, 27.38540, -1843.06, -918.418, -1846.85, -1124, -1666.88, -1024.59
0, 27.38542, -1844.72, -919.875, -1848.51, -1125.46, -1668.54, -1026.06
0, 27.38543, -1837.65, -913.721, -1841.5, -1119.27, -1661.53, -1019.94
0, 27.38544, -1835.79, -912.104, -1839.65, -1117.65, -1659.68, -1018.33
0, 27.38546, -1838.26, -914.235, -1842.08, -1119.8, -1662.11, -1020.43
0, 27.38547, -1840.21, -915.936, -1844.02, -1121.51, -1664.05, -1022.13
0, 27.38548, -1837.39, -913.497, -1841.25, -1119.05, -1661.27, -1019.72
0, 27.38550, -1847.1, -921.953, -1850.88, -1127.54, -1670.91, -1028.13
0, 27.38551, -1839.84, -915.632, -1843.68, -1121.19, -1663.71, -1021.84
0, 27.38552, -1841.3, -916.89, -1845.11, -1122.46, -1665.14, -1023.08
0, 27.38554, -1836.38, -912.633, -1840.26, -1118.17, -1660.29, -1018.87
0, 45.33596, -1816.28, -895.156, -1820.25, -1100.64, -1640.28, -1001.44
0, 45.36256, -1829.16, -906.306, -1833.02, -1111.86, -1653.05, -1012.53
0, 45.42406, -1821.97, -900.077, -1825.89, -1105.59, -1645.92, -1006.34
0, 45.52031, -1825.71, -903.306, -1829.58, -1108.85, -1649.61, -1009.53
0, 45.52462, -1827.37, -904.757, -1831.25, -1110.3, -1651.27, -1010.99
0, 45.52467, -1819.82, -898.219, -1823.76, -1103.73, -1643.79, -1004.48
0, 45.57751, -1828.19, -905.47, -1832.06, -1111.01, -1652.09, -1011.7
0, 45.57753, -1818.08, -896.71, -1822.03, -1102.21, -1642.06, -1002.98
0, 45.57755, -1823.1, -901.034, -1826.97, -1106.57, -1647, -1007.26
0, 45.58058, -1816.14, -895.025, -1820.09, -1100.52, -1640.12, -1001.3
0, 45.75872, -1827.45, -904.824, -1831.33, -1110.37, -1651.35, -1011.05
0, 45.82471, -1823.79, -901.668, -1827.72, -1107.18, -1647.74, -1007.93
0, 45.86999, -1825.16, -902.835, -1829.05, -1108.37, -1649.07, -1009.07
0, 45.87002, -1818.23, -896.836, -1822.17, -1102.34, -1642.2, -1003.11
0, 45.87003, -1816.05, -894.947, -1820.01, -1100.45, -1640.03, -1001.23
0, 45.87007, -1824.49, -902.255, -1828.38, -1107.79, -1648.41, -1008.5
0, 45.87009, -1816.49, -895.328, -1820.44, -1100.83, -1640.47, -1001.6
0, 45.87012, -1824.12, -901.93, -1828.01, -1107.46, -1648.04, -1008.17
0, 45.87013, -1817.92, -896.584, -1821.9, -1102.08, -1641.92, -1002.88
0, 45.87014, -1826.8, -904.262, -1830.68, -1109.8, -1650.71, -1010.5
0, 45.87016, -1822.21, -900.304, -1826.16, -1105.81, -1646.18, -1006.58
