hour, t(sec), P1 (kW), Q1 (kvar), P2 (kW), Q2 (kvar), P3 (kW), Q3 (kvar)
0, 36.61547, -1845.17, -1001.19, -1869.06, -1133.58, -1742.42, -1088.14
0, 36.66065, -1853, -1007.21, -1877.04, -1140.63, -1749.43, -1094.81
0, 36.71905, -1852.52, -1005.95, -1876.73, -1140.32, -1748.22, -1094.16
0, 36.76793, -1850.55, -1004.17, -1873.9, -1138.16, -1746.15, -1091.45
0, 36.81334, -1845.59, -998.927, -1869.07, -1133.86, -1740.44, -1086.79
0, 36.87764, -1850.67, -1002.47, -1874.24, -1138.46, -1744.64, -1090.94
0, 36.93933, -1849.18, -1000.33, -1872.96, -1137.25, -1742.45, -1089.45
0, 37.00661, -1842.14, -994.042, -1865.01, -1130.6, -1735.28, -1082.2
0, 37.06149, -1853.27, -1003, -1876.3, -1140.58, -1745.6, -1091.8
0, 37.12938, -1854.15, -1003.76, -1876.31, -1140.94, -1746.4, -1091.62
0, 37.18707, -1850.15, -999.378, -1872.46, -1137.49, -1741.66, -1087.83
0, 37.25707, -1851.19, -999.392, -1873.63, -1138.52, -1741.89, -1088.46
0, 37.31614, -1842.1, -990.489, -1864.71, -1130.58, -1732.05, -1080.19
0, 37.38157, -1850.59, -997.097, -1873.36, -1138.21, -1739.73, -1087.44
0, 37.45132, -1847.21, -994.115, -1869.12, -1134.8, -1736.29, -1083.51
0, 37.51667, -1845.24, -991.489, -1867.27, -1133.16, -1733.53, -1081.47
0, 37.58417, -1843.92, -989.452, -1866.1, -1132.1, -1731.44, -1080.05
0, 37.65339, -1845.66, -990.093, -1867.97, -1133.73, -1732.38, -1081.32
0, 37.72458, -1846.24, -989.754, -1868.73, -1134.36, -1732.22, -1081.61
0, 37.78333, -1843.37, -986.377, -1866.04, -1131.93, -1728.62, -1078.86
0, 37.83759, -1841.02, -984.254, -1862.81, -1129.44, -1726.14, -1075.8
0, 37.89398, -1851.12, -992.271, -1873.04, -1138.49, -1735.41, -1084.44
0, 37.92739, -1849.86, -990.335, -1871.96, -1137.49, -1733.44, -1083.12
0, 37.99525, -1849.43, -989.078, -1871.68, -1137.21, -1732.23, -1082.49
0, 38.06946, -1840.46, -980.301, -1862.89, -1129.39, -1722.53, -1074.34
0, 38.13718, -1840.32, -979.302, -1862.88, -1129.36, -1721.61, -1073.94
0, 38.18738, -1843.48, -981.204, -1866.18, -1132.26, -1723.98, -1076.46
0, 38.25755, -1849.51, -985.639, -1872.35, -1137.7, -1729.2, -1081.53
0, 38.32874, -1843.08, -979.147, -1866.14, -1132.13, -1722.09, -1075.69
0, 38.38797, -1849.32, -984.57, -1871.46, -1137.23, -1728.14, -1080.15
0, 38.45625, -1847.13, -981.83, -1869.46, -1135.41, -1725.26, -1078.03
0, 38.52986, -1847.83, -981.566, -1870.29, -1136.13, -1725.17, -1078.38
0, 38.61764, -1838.2, -972.231, -1860.85, -1127.73, -1714.82, -1069.67
0, 38.71597, -1841.04, -973.837, -1863.8, -1130.33, -1716.85, -1071.88
0, 38.79303, -1837.89, -970.251, -1860.86, -1127.67, -1713.01, -1068.93
0, 38.86428, -1846.41, -976.854, -1869.53, -1135.31, -1720.71, -1076.18
0, 38.92338, -1840.34, -970.67, -1863.63, -1130.05, -1713.92, -1070.61
0, 38.99387, -1841.37, -970.714, -1864.8, -1131.07, -1714.18, -1071.26
0, 39.06617, -1840.4, -969.833, -1862.98, -1129.81, -1713.11, -1069.45
0, 39.12700, -1845.46, -974.204, -1867.09, -1133.86, -1717.98, -1072.85
0, 39.18159, -1844.43, -972.478, -1866.24, -1133.06, -1716.23, -1071.74
0, 39.25809, -1835.7, -964.751, -1856.63, -1124.94, -1707.4, -1063.05
0, 39.31747, -1840.51, -968.901, -1860.51, -1128.76, -1712.03, -1066.24
0, 39.39006, -1836.32, -964.42, -1856.52, -1125.18, -1707.16, -1062.38
0, 39.46328, -1837.49, -964.557, -1857.81, -1126.32, -1707.53, -1063.12
0, 39.56148, -1846.32, -971.46, -1866.82, -1134.23, -1715.57, -1070.68
0, 39.63693, -1833.16, -959.063, -1853.84, -1122.72, -1701.73, -1058.89
0, 39.71403, -1834.53, -960.206, -1854.31, -1123.52, -1702.95, -1059.08
0, 39.79807, -1843.96, -967.627, -1863.89, -1131.95, -1711.58, -1067.13
0, 39.87864, -1833.05, -958.026, -1852.1, -1121.92, -1700.6, -1056.56
0, 39.96151, -1844.11, -967.671, -1862.24, -1131.27, -1711.46, -1065.26
0, 40.04885, -1836.8, -961.237, -1854.07, -1124.41, -1704.09, -1057.86
0, 40.13393, -1840.25, -963.378, -1857.62, -1127.55, -1706.73, -1060.59
0, 40.22861, -1836.34, -959.141, -1853.94, -1124.22, -1702.14, -1057
0, 40.29751, -1845.96, -966.701, -1863.69, -1132.82, -1710.93, -1065.2
0, 40.36206, -1832.2, -953.803, -1850.14, -1120.8, -1696.51, -1052.92
0, 40.42941, -1839.5, -959.325, -1857.57, -1127.34, -1702.99, -1059.06
0, 40.50261, -1842.68, -961.268, -1860.89, -1130.25, -1705.41, -1061.61
0, 40.58775, -1844.21, -962.589, -1861.57, -1131.2, -1706.84, -1062.01
0, 40.65635, -1831.44, -951.35, -1847.91, -1119.53, -1693.99, -1049.79
0, 40.74167, -1844.22, -962.485, -1859.76, -1130.39, -1706.55, -1059.98
0, 40.82751, -1836.77, -955.13, -1852.51, -1123.94, -1698.42, -1053.25
0, 40.92249, -1843.39, -960.07, -1859.28, -1129.88, -1704.24, -1058.82
0, 41.01751, -1839.95, -956.239, -1856.03, -1126.96, -1700.11, -1055.61
0, 41.13515, -1842.09, -958.049, -1857.27, -1128.43, -1702.09, -1056.47
0, 41.23203, -1837.54, -953.242, -1852.9, -1124.54, -1696.84, -1052.27
0, 41.32667, -1831.23, -946.828, -1846.73, -1119.09, -1689.77, -1046.47
0, 41.44240, -1838.24, -952.109, -1853.89, -1125.37, -1695.99, -1052.38
0, 41.55070, -1840.75, -953.462, -1856.54, -1127.68, -1697.74, -1054.34
0, 41.64602, -1837.74, -950.01, -1853.74, -1125.15, -1694.04, -1051.52
0, 41.76965, -1837.28, -948.74, -1853.42, -1124.84, -1692.81, -1050.87
0, 41.89235, -1831.25, -942.615, -1847.58, -1119.66, -1686.06, -1045.37
0, 42.00725, -1838.6, -948.189, -1855.08, -1126.23, -1692.61, -1051.57
0, 42.10435, -1828.32, -938.364, -1844.99, -1117.3, -1681.66, -1042.36
0, 42.19860, -1833.38, -941.91, -1850.15, -1121.85, -1685.9, -1046.49
0, 42.30259, -1833.01, -940.773, -1849.98, -1121.64, -1684.83, -1046
0, 42.41107, -1828.4, -935.929, -1845.58, -1117.7, -1679.53, -1041.78
0, 42.51323, -1835.96, -942.454, -1852.2, -1123.94, -1686.88, -1047.36
0, 42.63201, -1835.17, -940.945, -1851.59, -1123.35, -1685.37, -1046.46
0, 42.73772, -1835.99, -940.813, -1852.56, -1124.19, -1685.44, -1046.95
0, 42.84555, -1824.71, -930.128, -1841.49, -1114.39, -1673.49, -1036.89
0, 42.93538, -1835.67, -938.838, -1852.58, -1124.13, -1683.62, -1046.23
0, 43.03216, -1825.28, -929.752, -1841.35, -1114.6, -1673.19, -1036.18
0, 43.15774, -1826.14, -929.649, -1842.34, -1115.46, -1673.28, -1036.68
0, 43.25757, -1831.22, -933.221, -1847.55, -1120.03, -1677.57, -1040.86
0, 43.35109, -1825.15, -927.911, -1840.65, -1114.31, -1671.44, -1034.63
0, 43.47663, -1827.19, -928.841, -1842.83, -1116.2, -1672.71, -1036.15
0, 43.58416, -1827.95, -928.669, -1843.76, -1116.98, -1672.74, -1036.61
0, 43.69599, -1829.81, -930.251, -1844.75, -1118.21, -1674.47, -1037.26
0, 43.81309, -1833.53, -932.646, -1848.59, -1121.58, -1677.4, -1040.25
0, 43.93571, -1829.82, -929.412, -1844.08, -1117.93, -1673.65, -1036.11
0, 44.05488, -1827.65, -926.664, -1842.03, -1116.13, -1670.73, -1033.95
0, 44.18229, -1835.98, -933.077, -1850.51, -1123.56, -1678.25, -1041
0, 44.28207, -1831.46, -928.334, -1846.2, -1119.7, -1673.06, -1036.88
0, 44.40878, -1834.41, -930.832, -1848.23, -1121.88, -1675.83, -1038.42
0, 44.54975, -1828.92, -926.042, -1841.92, -1116.67, -1670.3, -1032.71
0, 44.65601, -1834.93, -930.386, -1847.97, -1122.04, -1675.44, -1037.6
0, 44.78354, -1825.37, -922.052, -1837.62, -1113.26, -1665.87, -1028.36
0, 44.88650, -1827.88, -923.374, -1840.24, -1115.56, -1667.58, -1030.27
0, 44.97667, -1825.21, -920.24, -1837.78, -1113.34, -1664.23, -1027.77
0, 45.10041, -1822.78, -918.093, -1834.5, -1110.81, -1661.71, -1024.7
0, 45.23986, -1824.07, -919.152, -1834.87, -1111.52, -1662.83, -1024.79
0, 45.35672, -1829.33, -922.875, -1840.23, -1116.24, -1667.29, -1029.09
0, 45.50356, -1825.07, -918.372, -1836.21, -1112.62, -1662.38, -1025.25
0, 45.64179, -1819.83, -912.989, -1831.16, -1108.15, -1656.44, -1020.48
0, 45.77160, -1823.62, -915.408, -1835.04, -1111.57, -1659.42, -1023.48
0, 45.93450, -1829.09, -919.327, -1840.66, -1116.47, -1664.11, -1028.02
0, 46.03880, -1824.58, -914.615, -1836.4, -1112.64, -1658.96, -1023.96
0, 46.16759, -1821.74, -911.305, -1833.72, -1110.26, -1655.39, -1021.26
0, 46.28059, -1824.05, -912.462, -1836.16, -1112.4, -1656.92, -1023.01
0, 46.38813, -1822.25, -910.084, -1834.56, -1110.94, -1654.42, -1021.27
0, 46.52564, -1823.59, -910.407, -1836.04, -1112.22, -1655.01, -1022.2
0, 46.68742, -1822.96, -909.834, -1834.57, -1111.27, -1654.28, -1020.71
0, 46.81757, -1823.05, -909.873, -1833.78, -1110.95, -1654.24, -1019.8
0, 46.94122, -1816.04, -903.745, -1825.89, -1104.42, -1647.14, -1012.71
0, 47.08095, -1817.04, -903.771, -1827.02, -1105.4, -1647.38, -1013.33
0, 47.22173, -1823.9, -908.891, -1834.05, -1111.51, -1653.46, -1019.1
0, 47.33395, -1819.76, -904.508, -1830.13, -1108.02, -1648.67, -1015.34
0, 47.49922, -1823.21, -907.432, -1832.66, -1110.62, -1651.93, -1017.31
0, 47.68356, -1822.27, -906.593, -1830.86, -1109.39, -1650.9, -1015.54
0, 47.83354, -1819.13, -903.042, -1827.89, -1106.76, -1647.05, -1012.59
0, 48.00005, -1817.79, -901.041, -1826.7, -1105.7, -1644.97, -1011.19
0, 48.13937, -1827.55, -908.665, -1836.6, -1114.34, -1653.91, -1019.44
0, 48.27747, -1826.46, -906.911, -1835.69, -1113.5, -1652.13, -1018.3
0, 48.41099, -1825.42, -905.184, -1834.82, -1112.71, -1650.37, -1017.19
0, 48.55754, -1813.96, -895.217, -1822.54, -1102.3, -1638.87, -1006.29
0, 48.71360, -1823.09, -902.277, -1831.78, -1110.38, -1647.17, -1013.96
0, 48.87336, -1815.55, -895.725, -1823.41, -1103.4, -1639.6, -1006.47
0, 49.01741, -1816.35, -895.582, -1824.34, -1104.2, -1639.64, -1006.92
0, 49.19760, -1820.38, -898.233, -1828.51, -1107.83, -1642.89, -1010.17
0, 55.52185, -1809.54, -888.834, -1816.87, -1097.98, -1632.05, -999.862
0, 55.58844, -1806.97, -886.613, -1814.31, -1095.74, -1629.5, -997.643
0, 55.65205, -1807.89, -887.392, -1815.21, -1096.54, -1630.39, -998.408
0, 55.70955, -1817.63, -895.814, -1824.91, -1105.03, -1640.05, -1006.83
0, 55.77180, -1816.19, -894.582, -1823.5, -1103.78, -1638.64, -1005.61
0, 55.86376, -1808.68, -888.091, -1816.01, -1097.23, -1631.19, -999.116
0, 55.92799, -1806.44, -886.151, -1813.78, -1095.28, -1628.96, -997.179
0, 55.99951, -1803.72, -883.807, -1811.07, -1092.92, -1626.27, -994.835
0, 56.08502, -1805.03, -884.919, -1812.35, -1094.05, -1627.54, -995.93
0, 56.16539, -1808.54, -887.94, -1815.83, -1097.1, -1631.01, -998.945
0, 56.21063, -1811.66, -890.64, -1818.95, -1099.82, -1634.11, -1001.65
0, 56.28094, -1806.69, -886.385, -1814.06, -1095.51, -1629.24, -997.426
0, 56.34415, -1815.3, -893.796, -1822.59, -1103, -1637.74, -1004.82
0, 56.40992, -1808.3, -887.756, -1815.63, -1096.9, -1630.81, -998.781
0, 56.48621, -1805.39, -885.252, -1812.74, -1094.37, -1627.93, -996.283
0, 56.54998, -1808.73, -888.107, -1816.03, -1097.27, -1631.2, -999.112
0, 56.62906, -1804.57, -884.549, -1811.93, -1093.66, -1627.12, -995.585
0, 56.69685, -1808.02, -887.497, -1815.32, -1096.65, -1630.5, -998.501
0, 56.75938, -1802.89, -883.103, -1810.27, -1092.2, -1625.46, -994.142
0, 56.81234, -1812.58, -891.445, -1819.88, -1100.63, -1635.04, -1002.46
0, 56.88289, -1815.8, -894.225, -1823.08, -1103.43, -1638.23, -1005.24
0, 56.96708, -1811.94, -890.913, -1819.28, -1100.07, -1634.44, -1001.95
0, 57.03905, -1809.26, -888.59, -1816.59, -1097.74, -1631.77, -999.622
0, 57.09747, -1815.12, -893.628, -1822.39, -1102.84, -1637.54, -1004.63
0, 57.17949, -1802.58, -882.825, -1809.93, -1091.92, -1625.14, -993.849
0, 57.27171, -1811.22, -890.267, -1818.52, -1099.44, -1633.69, -1001.28
0, 57.34995, -1804.66, -884.632, -1812.03, -1093.74, -1627.22, -995.678
0, 57.42293, -1810.02, -889.216, -1817.3, -1098.39, -1632.48, -1000.21
0, 57.48855, -1812.17, -891.088, -1819.47, -1100.27, -1634.63, -1002.1
0, 57.56368, -1802.8, -883.009, -1810.15, -1092.11, -1625.35, -994.031
0, 57.64964, -1808.51, -887.908, -1815.79, -1097.08, -1630.97, -998.902
0, 57.75180, -1812.94, -891.744, -1820.22, -1100.94, -1635.38, -1002.75
0, 57.83313, -1806.02, -885.789, -1813.36, -1094.92, -1628.55, -996.811
0, 57.92495, -1802.27, -882.564, -1809.64, -1091.66, -1624.84, -993.596
0, 58.00111, -1802.64, -882.861, -1809.97, -1091.97, -1625.18, -993.875
0, 58.06428, -1803.96, -884.002, -1811.29, -1093.13, -1626.49, -995.012
0, 58.16540, -1806.91, -886.54, -1814.22, -1095.69, -1629.4, -997.545
0, 58.22951, -1807.62, -887.16, -1814.94, -1096.31, -1630.12, -998.176
0, 58.28166, -1806.08, -885.841, -1813.42, -1094.97, -1628.61, -996.866
0, 58.35740, -1808.09, -887.562, -1815.4, -1096.72, -1630.58, -998.573
0, 58.40710, -1805.32, -885.186, -1812.67, -1094.31, -1627.86, -996.216
0, 58.47946, -1813.4, -892.151, -1820.69, -1101.34, -1635.85, -1003.17
0, 58.55606, -1812.98, -891.801, -1820.29, -1100.98, -1635.45, -1002.83
0, 58.63800, -1806.63, -886.333, -1814, -1095.45, -1629.18, -997.38
0, 58.71467, -1802.79, -883.008, -1810.15, -1092.11, -1625.35, -994.04
0, 58.76270, -1802.86, -883.052, -1810.2, -1092.17, -1625.4, -994.067
0, 58.83743, -1807.95, -887.426, -1815.24, -1096.59, -1630.42, -998.423
0, 58.91484, -1808.46, -887.884, -1815.77, -1097.04, -1630.95, -998.902
0, 58.98759, -1804.87, -884.803, -1812.23, -1093.92, -1627.42, -995.836
0, 59.05635, -1803.75, -883.83, -1811.1, -1092.95, -1626.29, -994.851
0, 59.12299, -1807.77, -887.278, -1815.07, -1096.44, -1630.25, -998.28
0, 59.19939, -1810.89, -889.979, -1818.19, -1099.15, -1633.35, -1000.99
0, 59.27519, -1803.69, -883.782, -1811.04, -1092.89, -1626.24, -994.804
0, 59.35061, -1803.98, -884.017, -1811.31, -1093.14, -1626.51, -995.032
0, 59.40754, -1811.03, -890.105, -1818.34, -1099.28, -1633.5, -1001.12
0, 59.47190, -1804.6, -884.581, -1811.98, -1093.69, -1627.16, -995.626
0, 59.55850, -1808.96, -888.308, -1816.25, -1097.47, -1631.43, -999.309
0, 59.63628, -1808.06, -887.548, -1815.39, -1096.69, -1630.57, -998.572
0, 59.71531, -1809.47, -888.753, -1816.78, -1097.91, -1631.95, -999.768
0, 59.79476, -1808.69, -888.09, -1816.01, -1097.24, -1631.19, -999.113
0, 59.86511, -1804.25, -884.276, -1811.62, -1093.38, -1626.81, -995.312
0, 59.93025, -1810.1, -889.28, -1817.37, -1098.46, -1632.55, -1000.27
0, 59.99881, -1806.4, -886.127, -1813.76, -1095.25, -1628.94, -997.162
0, 60.05306, -1811.11, -890.164, -1818.4, -1099.35, -1633.57, -1001.17
0, 60.11760, -1813.31, -892.075, -1820.6, -1101.26, -1635.76, -1003.09
0, 60.19594, -1801.81, -882.163, -1809.17, -1091.26, -1624.38, -993.185
0, 60.27514, -1806.76, -886.402, -1814.05, -1095.56, -1629.24, -997.399
0, 60.36303, -1808.06, -887.538, -1815.37, -1096.69, -1630.55, -998.552
0, 60.45377, -1798.47, -879.274, -1805.83, -1088.35, -1621.05, -990.292
0, 60.51949, -1805.54, -885.361, -1812.86, -1094.5, -1628.05, -996.374
0, 60.62237, -1799.57, -880.236, -1806.95, -1089.31, -1622.16, -991.275
0, 60.69630, -1808.66, -888.055, -1815.97, -1097.22, -1631.15, -999.069
0, 60.78442, -1809.22, -888.548, -1816.54, -1097.7, -1631.71, -999.566
0, 60.86378, -1802.96, -883.169, -1810.34, -1092.26, -1625.54, -994.212
0, 60.92477, -1805.86, -885.635, -1813.17, -1094.78, -1628.36, -996.64
0, 60.99790, -1811.54, -890.531, -1818.82, -1099.72, -1633.99, -1001.53
0, 61.06223, -1803.4, -883.533, -1810.75, -1092.64, -1625.95, -994.554
0, 61.14190, -1803.66, -883.745, -1811, -1092.86, -1626.19, -994.76
0, 61.22668, -1802.17, -882.463, -1809.52, -1091.57, -1624.72, -993.484
0, 61.29179, -1802.51, -882.749, -1809.85, -1091.86, -1625.05, -993.763
0, 61.36086, -1810.89, -889.984, -1818.2, -1099.16, -1633.36, -1001
0, 61.42595, -1806.82, -886.491, -1814.18, -1095.62, -1629.36, -997.528
0, 61.50684, -1802.98, -883.174, -1810.34, -1092.28, -1625.54, -994.206
0, 61.60093, -1804.55, -884.506, -1811.87, -1093.63, -1627.07, -995.516
0, 61.70377, -1805.03, -884.921, -1812.35, -1094.05, -1627.55, -995.937
0, 61.78796, -1807.25, -886.831, -1814.56, -1095.98, -1629.74, -997.84
0, 61.86895, -1801.06, -881.527, -1808.45, -1090.61, -1623.65, -992.568
0, 61.97005, -1801.31, -881.712, -1808.65, -1090.82, -1623.85, -992.725
0, 62.04292, -1806.13, -885.86, -1813.43, -1095.01, -1628.62, -996.857
0, 62.12619, -1801.01, -881.481, -1808.39, -1090.57, -1623.6, -992.517
0, 62.20488, -1798.59, -879.381, -1805.96, -1088.46, -1621.17, -990.403
0, 62.30104, -1800.7, -881.182, -1808.03, -1090.29, -1623.24, -992.186
0, 62.39363, -1805.44, -885.257, -1812.73, -1094.4, -1627.93, -996.254
0, 62.45494, -1804.34, -884.332, -1811.68, -1093.45, -1626.87, -995.354
0, 62.54172, -1808.43, -887.85, -1815.73, -1097.01, -1630.91, -998.852
0, 62.63299, -1802.01, -882.35, -1809.4, -1091.44, -1624.6, -993.394
0, 62.70527, -1808.59, -887.971, -1815.86, -1097.14, -1631.04, -998.962
0, 62.78992, -1798.25, -879.091, -1805.62, -1088.16, -1620.84, -990.109
0, 62.85025, -1800.36, -880.885, -1807.69, -1089.99, -1622.9, -991.889
0, 62.93034, -1806.01, -885.746, -1813.3, -1094.9, -1628.49, -996.739
0, 63.04268, -1805.14, -885.028, -1812.48, -1094.15, -1627.67, -996.05
0, 63.12699, -1809.48, -888.756, -1816.77, -1097.93, -1631.95, -999.757
0, 63.22458, -1801.17, -881.608, -1808.53, -1090.7, -1623.74, -992.628
0, 63.31282, -1809.48, -888.765, -1816.79, -1097.93, -1631.96, -999.78
0, 63.39923, -1807.83, -887.348, -1815.16, -1096.49, -1630.34, -998.375
0, 63.50023, -1804.66, -884.624, -1812.02, -1093.74, -1627.21, -995.655
0, 63.58624, -1802.82, -883.03, -1810.17, -1092.14, -1625.37, -994.053
0, 63.65804, -1808.22, -887.662, -1815.51, -1096.83, -1630.69, -998.657
0, 63.75286, -1807.29, -886.88, -1814.62, -1096.02, -1629.8, -997.903
0, 63.83231, -1806.59, -886.28, -1813.93, -1095.41, -1629.11, -997.301
0, 63.91568, -1803.27, -883.422, -1810.63, -1092.53, -1625.83, -994.452
0, 63.99965, -1803.9, -883.947, -1811.23, -1093.07, -1626.43, -994.96
0, 64.08323, -1798.29, -879.135, -1805.68, -1088.2, -1620.89, -990.171
0, 64.15649, -1797.51, -878.44, -1804.86, -1087.52, -1620.09, -989.454
0, 64.25167, -1807.03, -886.641, -1814.34, -1095.79, -1629.52, -997.653
0, 64.32393, -1808.12, -887.592, -1815.44, -1096.74, -1630.62, -998.607
0, 64.39700, -1796.67, -877.725, -1804.04, -1086.79, -1619.27, -988.743
0, 64.47463, -1803.63, -883.713, -1810.96, -1092.84, -1626.15, -994.724
0, 64.57158, -1796.11, -877.239, -1803.47, -1086.3, -1618.7, -988.254
0, 64.68940, -1794.39, -875.762, -1801.77, -1084.82, -1617, -986.778
0, 64.79357, -1802.06, -882.354, -1809.39, -1091.47, -1624.59, -993.363
0, 64.89648, -1807.12, -886.707, -1814.41, -1095.86, -1629.59, -997.704
0, 64.97450, -1802.94, -883.14, -1810.31, -1092.24, -1625.5, -994.174
0, 65.08038, -1800.73, -881.228, -1808.09, -1090.32, -1623.3, -992.251
0, 65.16516, -1807.32, -886.88, -1814.6, -1096.04, -1629.79, -997.87
0, 65.24767, -1799.71, -880.342, -1807.06, -1089.43, -1622.28, -991.36
0, 65.33438, -1805.75, -885.52, -1813.03, -1094.67, -1628.23, -996.511
0, 65.42844, -1797.37, -878.33, -1804.74, -1087.4, -1619.96, -989.347
0, 65.51762, -1806.34, -886.048, -1813.66, -1095.19, -1628.84, -997.06
0, 65.65235, -1795.99, -877.145, -1803.37, -1086.2, -1618.6, -988.162
0, 74.32343, -1784.08, -866.902, -1791.49, -1075.88, -1606.77, -977.91
0, 74.42818, -1790.13, -872.059, -1797.46, -1081.11, -1612.72, -983.037
0, 74.54733, -1792.26, -873.91, -1799.61, -1082.96, -1614.86, -984.908
0, 74.65154, -1796.04, -877.156, -1803.37, -1086.24, -1618.6, -988.149
0, 74.73922, -1792.33, -873.995, -1799.72, -1083.03, -1614.97, -985.018
0, 74.83722, -1791.26, -873.062, -1798.64, -1082.1, -1613.89, -984.072
0, 74.94591, -1786.23, -868.749, -1793.64, -1077.74, -1608.91, -979.772
0, 75.05257, -1790.5, -872.384, -1797.84, -1081.43, -1613.1, -983.37
0, 75.12278, -1791.63, -873.371, -1798.99, -1082.42, -1614.24, -984.373
0, 75.24652, -1794.36, -875.712, -1801.7, -1084.78, -1616.94, -986.708
0, 75.33906, -1789.74, -871.773, -1797.15, -1080.79, -1612.4, -982.797
0, 75.47051, -1794.93, -876.197, -1802.26, -1085.28, -1617.49, -987.183
0, 75.55410, -1793.1, -874.649, -1800.48, -1083.69, -1615.72, -985.664
0, 75.64567, -1787.53, -869.874, -1794.95, -1078.87, -1610.21, -980.9
0, 75.73868, -1783.12, -866.077, -1790.54, -1075.05, -1605.82, -977.094
0, 75.83328, -1783.39, -866.296, -1790.79, -1075.28, -1606.07, -977.293
0, 75.95377, -1782.43, -865.469, -1789.83, -1074.45, -1605.11, -976.471
0, 76.09866, -1783.81, -866.648, -1791.19, -1075.64, -1606.47, -977.641
0, 76.18627, -1784.07, -866.873, -1791.46, -1075.87, -1606.74, -977.872
