hour, t(sec), S1 (kVA), Ang1, S2 (kVA), Ang2
0, 1.00000, 2000.14, 179.996, 0, 0
0, 0.00000, 1999.86, -179.999, 0, 0
0, 0.00000, 1999.86, -179.999, 0, 0
0, 0.00101, 2000.03, -180, 0, 0
0, 0.00101, 2000.03, -180, 0, 0
0, 0.00201, 2000, 180, 0, 0
0, 0.00201, 2000, 180, 0, 0
0, 0.00301, 2000, -180, 0, 0
0, 0.00301, 2000, -180, 0, 0
0, 0.00401, 2000, -180, 0, 0
0, 0.00401, 2000, -180, 0, 0
0, 0.00501, 2000, -180, 0, 0
0, 0.00501, 2000, -180, 0, 0
0, 0.00601, 2000, -180, 0, 0
0, 0.00601, 2000, -180, 0, 0
0, 0.00701, 2000, 180, 0, 0
0, 0.00701, 2000, 180, 0, 0
0, 0.00801, 2000, -180, 0, 0
0, 0.00801, 2000, -180, 0, 0
0, 0.00901, 2000, -180, 0, 0
0, 0.00901, 2000, -180, 0, 0
0, 0.01001, 2000, -180, 0, 0
0, 0.01001, 2000, -180, 0, 0
0, 0.01101, 2000, 180, 0, 0
0, 0.01101, 2000, 180, 0, 0
0, 0.01201, 2000, -180, 0, 0
0, 0.01201, 2000, -180, 0, 0
0, 0.01301, 2000, -180, 0, 0
0, 0.01301, 2000, -180, 0, 0
0, 0.01401, 2000, -180, 0, 0
0, 0.01401, 2000, -180, 0, 0
0, 0.01501, 2000, 180, 0, 0
0, 0.01501, 2000, 180, 0, 0
0, 0.01601, 2000, -180, 0, 0
0, 0.01601, 2000, -180, 0, 0
0, 0.01701, 2000, -180, 0, 0
0, 0.01701, 2000, -180, 0, 0
0, 0.01801, 2000, -180, 0, 0
0, 0.01801, 2000, -180, 0, 0
0, 0.01901, 2000, 180, 0, 0
0, 0.01901, 2000, 180, 0, 0
0, 0.02001, 2000, -180, 0, 0
0, 0.02001, 2000, -180, 0, 0
0, 0.02000, 2000, -180, 0, 0
0, 0.02101, 831.932, 179.995, 0, 0
0, 0.02101, 831.932, 179.995, 0, 0
0, 0.02201, 831.876, -179.999, 0, 0
0, 0.02201, 831.876, -179.999, 0, 0
0, 0.02301, 831.903, 180, 0, 0
0, 0.02301, 831.903, 180, 0, 0
0, 0.02401, 831.892, -180, 0, 0
0, 0.02401, 831.892, -180, 0, 0
0, 0.02501, 831.896, -180, 0, 0
0, 0.02501, 831.896, -180, 0, 0
0, 0.02601, 831.895, 180, 0, 0
0, 0.02601, 831.895, 180, 0, 0
0, 0.02701, 831.895, -180, 0, 0
0, 0.02701, 831.895, -180, 0, 0
0, 0.02801, 831.894, -180, 0, 0
0, 0.02801, 831.894, -180, 0, 0
0, 0.02901, 831.895, 180, 0, 0
0, 0.02901, 831.895, 180, 0, 0
0, 0.03001, 831.895, -180, 0, 0
0, 0.03001, 831.895, -180, 0, 0
0, 0.03101, 831.895, 180, 0, 0
0, 0.03101, 831.895, 180, 0, 0
0, 0.03201, 831.895, -180, 0, 0
0, 0.03201, 831.895, -180, 0, 0
0, 0.03301, 831.895, 180, 0, 0
0, 0.03301, 831.895, 180, 0, 0
0, 0.03401, 831.895, -180, 0, 0
0, 0.03401, 831.895, -180, 0, 0
0, 0.03501, 831.895, 180, 0, 0
0, 0.03501, 831.895, 180, 0, 0
0, 0.03601, 831.895, -180, 0, 0
0, 0.03601, 831.895, -180, 0, 0
0, 0.03701, 831.895, 180, 0, 0
0, 0.03701, 831.895, 180, 0, 0
0, 0.03801, 831.895, -180, 0, 0
0, 0.03801, 831.895, -180, 0, 0
0, 0.03901, 831.895, 180, 0, 0
0, 0.03901, 831.895, 180, 0, 0
0, 0.04001, 831.896, 180, 0, 0
0, 0.04001, 831.896, 180, 0, 0
0, 0.04101, 831.895, -180, 0, 0
0, 0.04101, 831.895, -180, 0, 0
0, 0.04201, 831.895, 180, 0, 0
0, 0.04201, 831.895, 180, 0, 0
0, 0.04301, 831.895, -180, 0, 0
0, 0.04301, 831.895, -180, 0, 0
0, 0.04401, 831.896, 180, 0, 0
0, 0.04401, 831.896, 180, 0, 0
0, 0.04501, 831.895, -180, 0, 0
0, 0.04501, 831.895, -180, 0, 0
0, 0.04601, 831.895, 180, 0, 0
0, 0.04601, 831.895, 180, 0, 0
0, 0.04701, 831.895, -180, 0, 0
0, 0.04701, 831.895, -180, 0, 0
0, 0.04801, 831.897, 180, 0, 0
0, 0.04801, 831.897, 180, 0, 0
0, 0.04901, 831.895, -180, 0, 0
0, 0.04901, 831.895, -180, 0, 0
0, 0.05001, 831.895, 180, 0, 0
0, 0.05001, 831.895, 180, 0, 0
0, 0.05101, 831.895, -180, 0, 0
0, 0.05101, 831.895, -180, 0, 0
0, 0.05201, 831.897, 180, 0, 0
0, 0.05201, 831.897, 180, 0, 0
0, 0.05301, 831.896, -180, 0, 0
0, 0.05301, 831.896, -180, 0, 0
0, 0.05401, 831.895, 180, 0, 0
0, 0.05401, 831.895, 180, 0, 0
0, 0.05501, 831.895, -180, 0, 0
0, 0.05501, 831.895, -180, 0, 0
0, 0.05601, 831.897, 180, 0, 0
0, 0.05601, 831.897, 180, 0, 0
0, 0.05701, 831.896, -180, 0, 0
0, 0.05701, 831.896, -180, 0, 0
0, 0.05801, 831.895, 180, 0, 0
0, 0.05801, 831.895, 180, 0, 0
0, 0.05901, 831.895, -180, 0, 0
0, 0.05901, 831.895, -180, 0, 0
0, 0.06001, 831.898, 180, 0, 0
0, 0.06001, 831.898, 180, 0, 0
0, 0.06101, 831.896, -180, 0, 0
0, 0.06101, 831.896, -180, 0, 0
0, 0.06201, 831.895, 180, 0, 0
0, 0.06201, 831.895, 180, 0, 0
0, 0.06301, 831.895, -180, 0, 0
0, 0.06301, 831.895, -180, 0, 0
0, 0.06401, 831.899, 179.999, 0, 0
0, 0.06401, 831.899, 179.999, 0, 0
0, 0.06501, 831.896, -180, 0, 0
0, 0.06501, 831.896, -180, 0, 0
0, 0.06601, 831.895, 180, 0, 0
0, 0.06601, 831.895, 180, 0, 0
0, 0.06701, 831.895, -180, 0, 0
0, 0.06701, 831.895, -180, 0, 0
0, 0.06801, 831.899, 179.999, 0, 0
0, 0.06801, 831.899, 179.999, 0, 0
0, 0.06901, 831.896, -180, 0, 0
0, 0.06901, 831.896, -180, 0, 0
0, 0.07001, 831.895, 180, 0, 0
0, 0.07001, 831.895, 180, 0, 0
0, 0.07101, 831.895, -180, 0, 0
0, 0.07101, 831.895, -180, 0, 0
0, 0.07201, 831.899, 179.999, 0, 0
0, 0.07201, 831.899, 179.999, 0, 0
0, 0.07301, 831.896, -180, 0, 0
0, 0.07301, 831.896, -180, 0, 0
0, 0.07401, 831.895, 180, 0, 0
0, 0.07401, 831.895, 180, 0, 0
0, 0.07501, 831.895, -180, 0, 0
0, 0.07501, 831.895, -180, 0, 0
0, 0.07601, 831.899, 179.999, 0, 0
0, 0.07601, 831.899, 179.999, 0, 0
0, 0.07701, 831.896, -180, 0, 0
0, 0.07701, 831.896, -180, 0, 0
0, 0.07801, 831.895, 180, 0, 0
0, 0.07801, 831.895, 180, 0, 0
0, 0.07901, 831.895, -180, 0, 0
0, 0.07901, 831.895, -180, 0, 0
0, 0.08001, 831.9, 179.999, 0, 0
0, 0.08001, 831.9, 179.999, 0, 0
0, 0.08101, 831.896, -180, 0, 0
0, 0.08101, 831.896, -180, 0, 0
0, 0.08201, 831.895, 180, 0, 0
0, 0.08201, 831.895, 180, 0, 0
0, 0.08301, 831.895, -180, 0, 0
0, 0.08301, 831.895, -180, 0, 0
0, 0.08401, 831.9, 179.999, 0, 0
0, 0.08401, 831.9, 179.999, 0, 0
0, 0.08501, 831.896, -180, 0, 0
0, 0.08501, 831.896, -180, 0, 0
0, 0.08601, 831.895, 180, 0, 0
0, 0.08601, 831.895, 180, 0, 0
0, 0.08701, 831.895, -180, 0, 0
0, 0.08701, 831.895, -180, 0, 0
0, 0.08801, 831.9, 179.999, 0, 0
0, 0.08801, 831.9, 179.999, 0, 0
0, 0.08901, 831.896, -180, 0, 0
0, 0.08901, 831.896, -180, 0, 0
0, 0.09001, 831.895, 180, 0, 0
0, 0.09001, 831.895, 180, 0, 0
0, 0.09101, 831.895, -180, 0, 0
0, 0.09101, 831.895, -180, 0, 0
0, 0.09201, 831.9, 179.999, 0, 0
0, 0.09201, 831.9, 179.999, 0, 0
0, 0.09301, 831.896, -180, 0, 0
0, 0.09301, 831.896, -180, 0, 0
0, 0.09401, 831.895, 180, 0, 0
0, 0.09401, 831.895, 180, 0, 0
0, 0.09501, 831.895, -180, 0, 0
0, 0.09501, 831.895, -180, 0, 0
0, 0.09601, 831.899, 179.999, 0, 0
0, 0.09601, 831.899, 179.999, 0, 0
0, 0.09701, 831.896, -180, 0, 0
0, 0.09701, 831.896, -180, 0, 0
0, 0.09801, 831.895, 180, 0, 0
0, 0.09801, 831.895, 180, 0, 0
0, 0.09901, 831.895, -180, 0, 0
0, 0.09901, 831.895, -180, 0, 0
0, 0.10001, 831.899, 179.999, 0, 0
0, 0.10001, 831.899, 179.999, 0, 0
0, 0.10101, 831.896, -180, 0, 0
0, 0.10101, 831.896, -180, 0, 0
0, 0.10201, 831.895, 180, 0, 0
0, 0.10201, 831.895, 180, 0, 0
0, 0.10301, 831.895, -180, 0, 0
0, 0.10301, 831.895, -180, 0, 0
0, 0.10401, 831.899, 179.999, 0, 0
0, 0.10401, 831.899, 179.999, 0, 0
0, 0.10501, 831.896, -180, 0, 0
0, 0.10501, 831.896, -180, 0, 0
0, 0.10601, 831.895, 180, 0, 0
0, 0.10601, 831.895, 180, 0, 0
0, 0.10701, 831.895, -180, 0, 0
0, 0.10701, 831.895, -180, 0, 0
0, 0.10801, 831.899, 179.999, 0, 0
0, 0.10801, 831.899, 179.999, 0, 0
0, 0.10901, 831.896, -180, 0, 0
0, 0.10901, 831.896, -180, 0, 0
0, 0.11001, 831.895, 180, 0, 0
0, 0.11001, 831.895, 180, 0, 0
0, 0.11000, 831.895, -180, 0, 0
0, 0.11000, 831.895, -180, 0, 0
0, 0.11101, 831.895, 180, 0, 0
0, 0.11101, 831.895, 180, 0, 0
0, 0.11201, 831.899, 179.999, 0, 0
0, 0.11201, 831.899, 179.999, 0, 0
0, 0.11301, 831.896, -180, 0, 0
0, 0.11301, 831.896, -180, 0, 0
0, 0.11401, 831.895, 180, 0, 0
0, 0.11401, 831.895, 180, 0, 0
0, 0.11501, 831.895, -180, 0, 0
0, 0.11501, 831.895, -180, 0, 0
0, 0.11601, 831.898, 180, 0, 0
0, 0.11601, 831.898, 180, 0, 0
0, 0.11701, 831.896, -180, 0, 0
0, 0.11701, 831.896, -180, 0, 0
0, 0.11801, 831.895, 180, 0, 0
0, 0.11801, 831.895, 180, 0, 0
0, 0.11901, 831.895, -180, 0, 0
0, 0.11901, 831.895, -180, 0, 0
0, 0.12001, 831.898, 180, 0, 0
0, 0.12001, 831.898, 180, 0, 0
0, 0.12101, 831.896, -180, 0, 0
0, 0.12101, 831.896, -180, 0, 0
0, 0.12201, 831.895, 180, 0, 0
0, 0.12201, 831.895, 180, 0, 0
0, 0.12301, 831.895, -180, 0, 0
0, 0.12301, 831.895, -180, 0, 0
0, 0.12401, 831.898, 180, 0, 0
0, 0.12401, 831.898, 180, 0, 0
0, 0.12501, 831.896, -180, 0, 0
0, 0.12501, 831.896, -180, 0, 0
0, 0.12601, 831.895, 180, 0, 0
0, 0.12601, 831.895, 180, 0, 0
0, 0.12701, 831.895, -180, 0, 0
0, 0.12701, 831.895, -180, 0, 0
0, 0.12801, 831.898, 180, 0, 0
0, 0.12801, 831.898, 180, 0, 0
0, 0.12901, 831.896, -180, 0, 0
0, 0.12901, 831.896, -180, 0, 0
0, 0.13001, 831.895, 180, 0, 0
0, 0.13001, 831.895, 180, 0, 0
0, 0.13000, 831.895, -180, 0, 0
0, 0.13101, 819.29, 179.999, 0, 0
0, 0.13101, 819.29, 179.999, 0, 0
0, 0.13201, 819.248, -180, 0, 0
0, 0.13201, 819.248, -180, 0, 0
0, 0.13301, 819.263, 180, 0, 0
0, 0.13301, 819.263, 180, 0, 0
0, 0.13401, 819.256, 180, 0, 0
0, 0.13401, 819.256, 180, 0, 0
0, 0.13501, 819.258, -180, 0, 0
0, 0.13501, 819.258, -180, 0, 0
0, 0.13601, 819.26, 180, 0, 0
0, 0.13601, 819.26, 180, 0, 0
0, 0.13701, 819.258, -180, 0, 0
0, 0.13701, 819.258, -180, 0, 0
0, 0.13801, 819.257, 180, 0, 0
0, 0.13801, 819.257, 180, 0, 0
0, 0.13901, 819.257, -180, 0, 0
0, 0.13901, 819.257, -180, 0, 0
0, 0.14001, 819.26, 180, 0, 0
0, 0.14001, 819.26, 180, 0, 0
0, 0.14101, 819.258, -180, 0, 0
0, 0.14101, 819.258, -180, 0, 0
0, 0.14201, 819.257, 180, 0, 0
0, 0.14201, 819.257, 180, 0, 0
0, 0.14301, 819.257, -180, 0, 0
0, 0.14301, 819.257, -180, 0, 0
0, 0.14401, 819.26, 180, 0, 0
0, 0.14401, 819.26, 180, 0, 0
0, 0.14501, 819.258, -180, 0, 0
0, 0.14501, 819.258, -180, 0, 0
0, 0.14601, 819.257, 180, 0, 0
0, 0.14601, 819.257, 180, 0, 0
0, 0.14701, 819.257, -180, 0, 0
0, 0.14701, 819.257, -180, 0, 0
0, 0.14801, 819.26, 180, 0, 0
0, 0.14801, 819.26, 180, 0, 0
0, 0.14901, 819.258, -180, 0, 0
0, 0.14901, 819.258, -180, 0, 0
0, 0.15001, 819.257, 180, 0, 0
0, 0.15001, 819.257, 180, 0, 0
0, 0.15101, 819.257, -180, 0, 0
0, 0.15101, 819.257, -180, 0, 0
0, 0.15201, 819.261, 179.999, 0, 0
0, 0.15201, 819.261, 179.999, 0, 0
0, 0.15301, 819.258, -180, 0, 0
0, 0.15301, 819.258, -180, 0, 0
0, 0.15401, 819.257, 180, 0, 0
0, 0.15401, 819.257, 180, 0, 0
0, 0.15501, 819.257, -180, 0, 0
0, 0.15501, 819.257, -180, 0, 0
0, 0.15601, 819.261, 179.999, 0, 0
0, 0.15601, 819.261, 179.999, 0, 0
0, 0.15701, 819.258, -180, 0, 0
0, 0.15701, 819.258, -180, 0, 0
0, 0.15801, 819.257, 180, 0, 0
0, 0.15801, 819.257, 180, 0, 0
0, 0.15901, 819.257, -180, 0, 0
0, 0.15901, 819.257, -180, 0, 0
0, 0.16001, 819.261, 179.999, 0, 0
0, 0.16001, 819.261, 179.999, 0, 0
0, 0.16101, 819.258, -180, 0, 0
0, 0.16101, 819.258, -180, 0, 0
0, 0.16201, 819.257, 180, 0, 0
0, 0.16201, 819.257, 180, 0, 0
0, 0.16301, 819.257, -180, 0, 0
0, 0.16301, 819.257, -180, 0, 0
0, 0.16401, 819.261, 179.999, 0, 0
0, 0.16401, 819.261, 179.999, 0, 0
0, 0.16501, 819.258, -180, 0, 0
0, 0.16501, 819.258, -180, 0, 0
0, 0.16601, 819.257, 180, 0, 0
0, 0.16601, 819.257, 180, 0, 0
0, 0.16701, 819.257, -180, 0, 0
0, 0.16701, 819.257, -180, 0, 0
0, 0.16801, 819.261, 179.999, 0, 0
0, 0.16801, 819.261, 179.999, 0, 0
0, 0.16901, 819.258, -180, 0, 0
0, 0.16901, 819.258, -180, 0, 0
0, 0.17001, 819.257, 180, 0, 0
0, 0.17001, 819.257, 180, 0, 0
0, 0.17101, 819.257, -180, 0, 0
0, 0.17101, 819.257, -180, 0, 0
0, 0.17201, 819.262, 179.999, 0, 0
0, 0.17201, 819.262, 179.999, 0, 0
0, 0.17301, 819.258, -180, 0, 0
0, 0.17301, 819.258, -180, 0, 0
0, 0.17401, 819.257, 180, 0, 0
0, 0.17401, 819.257, 180, 0, 0
0, 0.17501, 819.257, -180, 0, 0
0, 0.17501, 819.257, -180, 0, 0
0, 0.17601, 819.262, 179.999, 0, 0
0, 0.17601, 819.262, 179.999, 0, 0
0, 0.17701, 819.258, -180, 0, 0
0, 0.17701, 819.258, -180, 0, 0
0, 0.17801, 819.257, 180, 0, 0
0, 0.17801, 819.257, 180, 0, 0
0, 0.17901, 819.257, -180, 0, 0
0, 0.17901, 819.257, -180, 0, 0
0, 0.18001, 819.262, 179.999, 0, 0
0, 0.18001, 819.262, 179.999, 0, 0
0, 0.18101, 819.258, -180, 0, 0
0, 0.18101, 819.258, -180, 0, 0
0, 0.18201, 819.257, 180, 0, 0
0, 0.18201, 819.257, 180, 0, 0
0, 0.18301, 819.257, -180, 0, 0
0, 0.18301, 819.257, -180, 0, 0
0, 0.18401, 819.262, 179.999, 0, 0
0, 0.18401, 819.262, 179.999, 0, 0
0, 0.18501, 819.258, -180, 0, 0
0, 0.18501, 819.258, -180, 0, 0
0, 0.18601, 819.257, 180, 0, 0
0, 0.18601, 819.257, 180, 0, 0
0, 0.18701, 819.257, -180, 0, 0
0, 0.18701, 819.257, -180, 0, 0
0, 0.18801, 819.262, 179.999, 0, 0
0, 0.18801, 819.262, 179.999, 0, 0
0, 0.18901, 819.258, -180, 0, 0
0, 0.18901, 819.258, -180, 0, 0
0, 0.19001, 819.257, 180, 0, 0
0, 0.19001, 819.257, 180, 0, 0
0, 0.19101, 819.257, -180, 0, 0
0, 0.19101, 819.257, -180, 0, 0
0, 0.19201, 819.262, 179.999, 0, 0
0, 0.19201, 819.262, 179.999, 0, 0
0, 0.19301, 819.258, -180, 0, 0
0, 0.19301, 819.258, -180, 0, 0
0, 0.19401, 819.257, 180, 0, 0
0, 0.19401, 819.257, 180, 0, 0
0, 0.19501, 819.257, -180, 0, 0
0, 0.19501, 819.257, -180, 0, 0
0, 0.19601, 819.261, 179.999, 0, 0
0, 0.19601, 819.261, 179.999, 0, 0
0, 0.19701, 819.258, -180, 0, 0
0, 0.19701, 819.258, -180, 0, 0
0, 0.19801, 819.257, 180, 0, 0
0, 0.19801, 819.257, 180, 0, 0
0, 0.19901, 819.257, -180, 0, 0
0, 0.19901, 819.257, -180, 0, 0
0, 0.20001, 819.261, 179.999, 0, 0
0, 0.20001, 819.261, 179.999, 0, 0
0, 0.20101, 819.258, -180, 0, 0
0, 0.20101, 819.258, -180, 0, 0
0, 0.20201, 819.257, 180, 0, 0
0, 0.20201, 819.257, 180, 0, 0
0, 0.20301, 819.257, -180, 0, 0
0, 0.20301, 819.257, -180, 0, 0
0, 0.20401, 819.261, 179.999, 0, 0
0, 0.20401, 819.261, 179.999, 0, 0
0, 0.20501, 819.258, -180, 0, 0
0, 0.20501, 819.258, -180, 0, 0
0, 0.20601, 819.257, 180, 0, 0
0, 0.20601, 819.257, 180, 0, 0
0, 0.20701, 819.257, -180, 0, 0
0, 0.20701, 819.257, -180, 0, 0
0, 0.20801, 819.261, 179.999, 0, 0
0, 0.20801, 819.261, 179.999, 0, 0
0, 0.20901, 819.258, -180, 0, 0
0, 0.20901, 819.258, -180, 0, 0
0, 0.21000, 819.257, 180, 0, 0
0, 0.21000, 819.257, 180, 0, 0
0, 0.21001, 819.257, -180, 0, 0
0, 0.21001, 819.257, -180, 0, 0
0, 0.21101, 819.257, 180, 0, 0
0, 0.21101, 819.257, 180, 0, 0
0, 0.21201, 819.261, 179.999, 0, 0
0, 0.21201, 819.261, 179.999, 0, 0
0, 0.21301, 819.258, -180, 0, 0
0, 0.21301, 819.258, -180, 0, 0
0, 0.21401, 819.257, 180, 0, 0
0, 0.21401, 819.257, 180, 0, 0
0, 0.21501, 819.257, -180, 0, 0
0, 0.21501, 819.257, -180, 0, 0
0, 0.21601, 819.261, 179.999, 0, 0
0, 0.21601, 819.261, 179.999, 0, 0
0, 0.21701, 819.258, -180, 0, 0
0, 0.21701, 819.258, -180, 0, 0
0, 0.21801, 819.257, 180, 0, 0
0, 0.21801, 819.257, 180, 0, 0
0, 0.21901, 819.257, -180, 0, 0
0, 0.21901, 819.257, -180, 0, 0
0, 0.22001, 819.261, 179.999, 0, 0
0, 0.22001, 819.261, 179.999, 0, 0
0, 0.22101, 819.258, -180, 0, 0
0, 0.22101, 819.258, -180, 0, 0
0, 0.22201, 819.257, 180, 0, 0
0, 0.22201, 819.257, 180, 0, 0
0, 0.22301, 819.257, -180, 0, 0
0, 0.22301, 819.257, -180, 0, 0
0, 0.22401, 819.261, 179.999, 0, 0
0, 0.22401, 819.261, 179.999, 0, 0
0, 0.22501, 819.258, -180, 0, 0
0, 0.22501, 819.258, -180, 0, 0
0, 0.22601, 819.257, 180, 0, 0
0, 0.22601, 819.257, 180, 0, 0
0, 0.22701, 819.257, -180, 0, 0
0, 0.22701, 819.257, -180, 0, 0
0, 0.22801, 819.26, 180, 0, 0
0, 0.22801, 819.26, 180, 0, 0
0, 0.22901, 819.258, -180, 0, 0
0, 0.22901, 819.258, -180, 0, 0
0, 0.23001, 819.257, 180, 0, 0
0, 0.23001, 819.257, 180, 0, 0
0, 0.23000, 819.257, -180, 0, 0
0, 0.23101, 794.897, 179.997, 0, 0
0, 0.23101, 794.897, 179.997, 0, 0
0, 0.23201, 794.929, -179.999, 0, 0
0, 0.23201, 794.929, -179.999, 0, 0
0, 0.23301, 794.923, 180, 0, 0
0, 0.23301, 794.923, 180, 0, 0
0, 0.23401, 794.92, -180, 0, 0
0, 0.23401, 794.92, -180, 0, 0
0, 0.23501, 794.922, 180, 0, 0
0, 0.23501, 794.922, 180, 0, 0
0, 0.23601, 794.924, 180, 0, 0
0, 0.23601, 794.924, 180, 0, 0
0, 0.23701, 794.922, -180, 0, 0
0, 0.23701, 794.922, -180, 0, 0
0, 0.23801, 794.921, 180, 0, 0
0, 0.23801, 794.921, 180, 0, 0
0, 0.23901, 794.922, -180, 0, 0
0, 0.23901, 794.922, -180, 0, 0
0, 0.24001, 794.924, 180, 0, 0
0, 0.24001, 794.924, 180, 0, 0
0, 0.24101, 794.922, -180, 0, 0
0, 0.24101, 794.922, -180, 0, 0
0, 0.24201, 794.921, 180, 0, 0
0, 0.24201, 794.921, 180, 0, 0
0, 0.24301, 794.922, -180, 0, 0
0, 0.24301, 794.922, -180, 0, 0
0, 0.24401, 794.925, 179.999, 0, 0
0, 0.24401, 794.925, 179.999, 0, 0
0, 0.24501, 794.922, -180, 0, 0
0, 0.24501, 794.922, -180, 0, 0
0, 0.24601, 794.921, 180, 0, 0
0, 0.24601, 794.921, 180, 0, 0
0, 0.24701, 794.922, -180, 0, 0
0, 0.24701, 794.922, -180, 0, 0
0, 0.24801, 794.925, 179.999, 0, 0
0, 0.24801, 794.925, 179.999, 0, 0
0, 0.24901, 794.922, -180, 0, 0
0, 0.24901, 794.922, -180, 0, 0
0, 0.25001, 794.921, 180, 0, 0
0, 0.25001, 794.921, 180, 0, 0
0, 0.25101, 794.922, -180, 0, 0
0, 0.25101, 794.922, -180, 0, 0
0, 0.25201, 794.925, 179.999, 0, 0
0, 0.25201, 794.925, 179.999, 0, 0
0, 0.25301, 794.922, -180, 0, 0
0, 0.25301, 794.922, -180, 0, 0
0, 0.25401, 794.921, 180, 0, 0
0, 0.25401, 794.921, 180, 0, 0
0, 0.25501, 794.922, -180, 0, 0
0, 0.25501, 794.922, -180, 0, 0
0, 0.25601, 794.925, 179.999, 0, 0
0, 0.25601, 794.925, 179.999, 0, 0
0, 0.25701, 794.922, -180, 0, 0
0, 0.25701, 794.922, -180, 0, 0
0, 0.25801, 794.921, 180, 0, 0
0, 0.25801, 794.921, 180, 0, 0
0, 0.25901, 794.922, -180, 0, 0
0, 0.25901, 794.922, -180, 0, 0
0, 0.26001, 794.924, 180, 0, 0
0, 0.26001, 794.924, 180, 0, 0
0, 0.26101, 794.922, -180, 0, 0
0, 0.26101, 794.922, -180, 0, 0
0, 0.26201, 794.921, 180, 0, 0
0, 0.26201, 794.921, 180, 0, 0
0, 0.26301, 794.922, -180, 0, 0
0, 0.26301, 794.922, -180, 0, 0
0, 0.26401, 794.924, 180, 0, 0
0, 0.26401, 794.924, 180, 0, 0
0, 0.26501, 794.922, -180, 0, 0
0, 0.26501, 794.922, -180, 0, 0
0, 0.26601, 794.921, 180, 0, 0
0, 0.26601, 794.921, 180, 0, 0
0, 0.26701, 794.922, -180, 0, 0
0, 0.26701, 794.922, -180, 0, 0
0, 0.26801, 794.923, 180, 0, 0
0, 0.26801, 794.923, 180, 0, 0
0, 0.26901, 794.922, -180, 0, 0
0, 0.26901, 794.922, -180, 0, 0
0, 0.27001, 794.921, 180, 0, 0
0, 0.27001, 794.921, 180, 0, 0
0, 0.27101, 794.922, -180, 0, 0
0, 0.27101, 794.922, -180, 0, 0
0, 0.27201, 794.923, 180, 0, 0
0, 0.27201, 794.923, 180, 0, 0
0, 0.27301, 794.922, -180, 0, 0
0, 0.27301, 794.922, -180, 0, 0
0, 0.27401, 794.921, 180, 0, 0
0, 0.27401, 794.921, 180, 0, 0
0, 0.27501, 794.922, -180, 0, 0
0, 0.27501, 794.922, -180, 0, 0
0, 0.27601, 794.922, 180, 0, 0
0, 0.27601, 794.922, 180, 0, 0
0, 0.27701, 794.922, -180, 0, 0
0, 0.27701, 794.922, -180, 0, 0
0, 0.27801, 794.921, 180, 0, 0
0, 0.27801, 794.921, 180, 0, 0
0, 0.27901, 794.922, -180, 0, 0
0, 0.27901, 794.922, -180, 0, 0
0, 0.28001, 794.922, 180, 0, 0
0, 0.28001, 794.922, 180, 0, 0
0, 0.28101, 794.922, -180, 0, 0
0, 0.28101, 794.922, -180, 0, 0
0, 0.28201, 794.921, 180, 0, 0
0, 0.28201, 794.921, 180, 0, 0
0, 0.28301, 794.922, -180, 0, 0
0, 0.28301, 794.922, -180, 0, 0
0, 0.28401, 794.922, 180, 0, 0
0, 0.28401, 794.922, 180, 0, 0
0, 0.28501, 794.922, -180, 0, 0
0, 0.28501, 794.922, -180, 0, 0
0, 0.28601, 794.921, 180, 0, 0
0, 0.28601, 794.921, 180, 0, 0
0, 0.28701, 794.922, -180, 0, 0
0, 0.28701, 794.922, -180, 0, 0
0, 0.28801, 794.922, 180, 0, 0
0, 0.28801, 794.922, 180, 0, 0
0, 0.28901, 794.922, -180, 0, 0
0, 0.28901, 794.922, -180, 0, 0
0, 0.29001, 794.922, 180, 0, 0
0, 0.29001, 794.922, 180, 0, 0
0, 0.29101, 794.922, -180, 0, 0
0, 0.29101, 794.922, -180, 0, 0
0, 0.29201, 794.921, -180, 0, 0
0, 0.29201, 794.921, -180, 0, 0
0, 0.29301, 794.921, 180, 0, 0
0, 0.29301, 794.921, 180, 0, 0
0, 0.29401, 794.922, -180, 0, 0
0, 0.29401, 794.922, -180, 0, 0
0, 0.29501, 794.922, 180, 0, 0
0, 0.29501, 794.922, 180, 0, 0
0, 0.29601, 794.921, -180, 0, 0
0, 0.29601, 794.921, -180, 0, 0
0, 0.29701, 794.921, 180, 0, 0
0, 0.29701, 794.921, 180, 0, 0
0, 0.29801, 794.922, -180, 0, 0
0, 0.29801, 794.922, -180, 0, 0
0, 0.29901, 794.922, 180, 0, 0
0, 0.29901, 794.922, 180, 0, 0
0, 0.30001, 794.921, -180, 0, 0
0, 0.30001, 794.921, -180, 0, 0
0, 0.30101, 794.921, 180, 0, 0
0, 0.30101, 794.921, 180, 0, 0
0, 0.30201, 794.922, -180, 0, 0
0, 0.30201, 794.922, -180, 0, 0
0, 0.30301, 794.922, 180, 0, 0
0, 0.30301, 794.922, 180, 0, 0
0, 0.30401, 794.92, -180, 0, 0
0, 0.30401, 794.92, -180, 0, 0
0, 0.30501, 794.921, 180, 0, 0
0, 0.30501, 794.921, 180, 0, 0
0, 0.30601, 794.922, -180, 0, 0
0, 0.30601, 794.922, -180, 0, 0
0, 0.30701, 794.921, 180, 0, 0
0, 0.30701, 794.921, 180, 0, 0
0, 0.30801, 794.92, -180, 0, 0
0, 0.30801, 794.92, -180, 0, 0
0, 0.30901, 794.921, 180, 0, 0
