hour, t(sec), V1, VAngle1, V2, VAngle2, V3, VAngle3, VN, VNAngle, I1, IAngle1, I2, IAngle2, I3, IAngle3, IN, INAngle
0, 1.00000, 2528.66, 33.1768, 2396.25, -80.8965, 2334.55, 154.837, 382.711, 1.54269, 7.85352, -177.288, 31.7782, 69.172, 57.9739, -55.3275, 40.7944, -26.7299
0, 0.00000, 2522.32, 33.0808, 2391.32, -81.054, 2328.21, 154.696, 380.627, 1.45217, 7.83386, -177.385, 31.8497, 69.0145, 58.1174, -55.4695, 40.9417, -26.8613
0, 0.00000, 2522.32, 33.0808, 2391.32, -81.054, 2328.21, 154.696, 380.627, 1.45217, 7.83386, -177.385, 31.8497, 69.0145, 58.1174, -55.4695, 40.9417, -26.8613
0, 0.00101, 2522.24, 33.0799, 2391.39, -81.0567, 2328.21, 154.699, 380.413, 1.41063, 7.83356, -177.386, 31.8465, 69.0118, 58.1255, -55.4662, 40.9524, -26.8666
0, 0.00101, 2522.24, 33.0799, 2391.39, -81.0567, 2328.21, 154.699, 380.413, 1.41063, 7.83356, -177.386, 31.8465, 69.0118, 58.1255, -55.4662, 40.9524, -26.8666
0, 0.00201, 2522.25, 33.0803, 2391.37, -81.0563, 2328.21, 154.698, 380.434, 1.42084, 7.83362, -177.385, 31.8469, 69.0122, 58.124, -55.4669, 40.9506, -26.866
0, 0.00201, 2522.25, 33.0803, 2391.37, -81.0563, 2328.21, 154.698, 380.434, 1.42084, 7.83362, -177.385, 31.8469, 69.0122, 58.124, -55.4669, 40.9506, -26.866
0, 0.00301, 2522.25, 33.0802, 2391.37, -81.0563, 2328.21, 154.698, 380.434, 1.41867, 7.83361, -177.385, 31.8469, 69.0121, 58.1242, -55.4668, 40.9509, -26.866
0, 0.00301, 2522.25, 33.0802, 2391.37, -81.0563, 2328.21, 154.698, 380.434, 1.41867, 7.83361, -177.385, 31.8469, 69.0121, 58.1242, -55.4668, 40.9509, -26.866
0, 0.00401, 2522.23, 33.0798, 2391.36, -81.057, 2328.19, 154.698, 380.42, 1.4182, 7.83353, -177.386, 31.847, 69.0115, 58.1248, -55.4672, 40.9515, -26.8666
0, 0.00401, 2522.23, 33.0798, 2391.36, -81.057, 2328.19, 154.698, 380.42, 1.4182, 7.83353, -177.386, 31.847, 69.0115, 58.1248, -55.4672, 40.9515, -26.8666
0, 0.00501, 2522.23, 33.0798, 2391.36, -81.0569, 2328.19, 154.698, 380.425, 1.41861, 7.83354, -177.386, 31.8471, 69.0116, 58.1248, -55.4673, 40.9514, -26.8665
0, 0.00501, 2522.23, 33.0798, 2391.36, -81.0569, 2328.19, 154.698, 380.425, 1.41861, 7.83354, -177.386, 31.8471, 69.0116, 58.1248, -55.4673, 40.9514, -26.8665
0, 0.00601, 2522.23, 33.0798, 2391.36, -81.0569, 2328.19, 154.698, 380.424, 1.41846, 7.83353, -177.386, 31.8471, 69.0116, 58.1248, -55.4673, 40.9514, -26.8666
0, 0.00601, 2522.23, 33.0798, 2391.36, -81.0569, 2328.19, 154.698, 380.424, 1.41846, 7.83353, -177.386, 31.8471, 69.0116, 58.1248, -55.4673, 40.9514, -26.8666
0, 0.00701, 2522.23, 33.0798, 2391.36, -81.0569, 2328.19, 154.698, 380.425, 1.4185, 7.83353, -177.386, 31.8471, 69.0116, 58.1248, -55.4673, 40.9514, -26.8666
0, 0.00701, 2522.23, 33.0798, 2391.36, -81.0569, 2328.19, 154.698, 380.425, 1.4185, 7.83353, -177.386, 31.8471, 69.0116, 58.1248, -55.4673, 40.9514, -26.8666
0, 0.00801, 2522.18, 33.0792, 2391.32, -81.0581, 2328.15, 154.697, 380.399, 1.41684, 7.83339, -177.386, 31.8474, 69.0104, 58.1259, -55.4682, 40.9527, -26.8677
0, 0.00801, 2522.18, 33.0792, 2391.32, -81.0581, 2328.15, 154.697, 380.399, 1.41684, 7.83339, -177.386, 31.8474, 69.0104, 58.1259, -55.4682, 40.9527, -26.8677
0, 0.00901, 2522.18, 33.0792, 2391.32, -81.058, 2328.15, 154.697, 380.409, 1.41773, 7.8334, -177.386, 31.8476, 69.0105, 58.1258, -55.4682, 40.9525, -26.8675
0, 0.00901, 2522.18, 33.0792, 2391.32, -81.058, 2328.15, 154.697, 380.409, 1.41773, 7.8334, -177.386, 31.8476, 69.0105, 58.1258, -55.4682, 40.9525, -26.8675
0, 0.01001, 2522.18, 33.0792, 2391.32, -81.0581, 2328.15, 154.697, 380.407, 1.41744, 7.8334, -177.386, 31.8475, 69.0104, 58.1259, -55.4682, 40.9526, -26.8675
0, 0.01001, 2522.18, 33.0792, 2391.32, -81.0581, 2328.15, 154.697, 380.407, 1.41744, 7.8334, -177.386, 31.8475, 69.0104, 58.1259, -55.4682, 40.9526, -26.8675
0, 0.01101, 2522.18, 33.0792, 2391.32, -81.058, 2328.15, 154.697, 380.407, 1.41751, 7.8334, -177.386, 31.8475, 69.0104, 58.1259, -55.4682, 40.9526, -26.8675
0, 0.01101, 2522.18, 33.0792, 2391.32, -81.058, 2328.15, 154.697, 380.407, 1.41751, 7.8334, -177.386, 31.8475, 69.0104, 58.1259, -55.4682, 40.9526, -26.8675
0, 0.01201, 2522.14, 33.0786, 2391.3, -81.0591, 2328.11, 154.696, 380.386, 1.4161, 7.83327, -177.387, 31.8478, 69.0094, 58.1268, -55.469, 40.9537, -26.8685
0, 0.01201, 2522.14, 33.0786, 2391.3, -81.0591, 2328.11, 154.696, 380.386, 1.4161, 7.83327, -177.387, 31.8478, 69.0094, 58.1268, -55.469, 40.9537, -26.8685
0, 0.01301, 2522.14, 33.0786, 2391.29, -81.059, 2328.11, 154.696, 380.394, 1.41686, 7.83328, -177.387, 31.8479, 69.0095, 58.1267, -55.469, 40.9535, -26.8683
0, 0.01301, 2522.14, 33.0786, 2391.29, -81.059, 2328.11, 154.696, 380.394, 1.41686, 7.83328, -177.387, 31.8479, 69.0095, 58.1267, -55.469, 40.9535, -26.8683
0, 0.01401, 2522.14, 33.0786, 2391.29, -81.059, 2328.11, 154.696, 380.393, 1.41661, 7.83328, -177.387, 31.8479, 69.0095, 58.1268, -55.469, 40.9536, -26.8684
0, 0.01401, 2522.14, 33.0786, 2391.29, -81.059, 2328.11, 154.696, 380.393, 1.41661, 7.83328, -177.387, 31.8479, 69.0095, 58.1268, -55.469, 40.9536, -26.8684
0, 0.01501, 2522.14, 33.0786, 2391.29, -81.059, 2328.11, 154.696, 380.393, 1.41667, 7.83328, -177.387, 31.8479, 69.0095, 58.1268, -55.469, 40.9535, -26.8684
0, 0.01501, 2522.14, 33.0786, 2391.29, -81.059, 2328.11, 154.696, 380.393, 1.41667, 7.83328, -177.387, 31.8479, 69.0095, 58.1268, -55.469, 40.9535, -26.8684
0, 0.01601, 2522.11, 33.0782, 2391.27, -81.0597, 2328.08, 154.695, 380.377, 1.4156, 7.83319, -177.387, 31.8481, 69.0087, 58.1275, -55.4696, 40.9544, -26.8691
0, 0.01601, 2522.11, 33.0782, 2391.27, -81.0597, 2328.08, 154.695, 380.377, 1.4156, 7.83319, -177.387, 31.8481, 69.0087, 58.1275, -55.4696, 40.9544, -26.8691
0, 0.01701, 2522.12, 33.0782, 2391.27, -81.0597, 2328.08, 154.695, 380.383, 1.41618, 7.83319, -177.387, 31.8482, 69.0088, 58.1274, -55.4696, 40.9542, -26.869
0, 0.01701, 2522.12, 33.0782, 2391.27, -81.0597, 2328.08, 154.695, 380.383, 1.41618, 7.83319, -177.387, 31.8482, 69.0088, 58.1274, -55.4696, 40.9542, -26.869
0, 0.01801, 2522.12, 33.0782, 2391.27, -81.0597, 2328.08, 154.695, 380.382, 1.41599, 7.83319, -177.387, 31.8482, 69.0088, 58.1275, -55.4696, 40.9543, -26.869
0, 0.01801, 2522.12, 33.0782, 2391.27, -81.0597, 2328.08, 154.695, 380.382, 1.41599, 7.83319, -177.387, 31.8482, 69.0088, 58.1275, -55.4696, 40.9543, -26.869
0, 0.01901, 2522.12, 33.0782, 2391.27, -81.0597, 2328.08, 154.695, 380.382, 1.41603, 7.83319, -177.387, 31.8482, 69.0088, 58.1275, -55.4696, 40.9543, -26.869
0, 0.01901, 2522.12, 33.0782, 2391.27, -81.0597, 2328.08, 154.695, 380.382, 1.41603, 7.83319, -177.387, 31.8482, 69.0088, 58.1275, -55.4696, 40.9543, -26.869
0, 0.02001, 2522.09, 33.0779, 2391.26, -81.0603, 2328.06, 154.695, 380.37, 1.4152, 7.83312, -177.388, 31.8484, 69.0082, 58.128, -55.47, 40.9549, -26.8695
0, 0.02001, 2522.09, 33.0779, 2391.26, -81.0603, 2328.06, 154.695, 380.37, 1.4152, 7.83312, -177.388, 31.8484, 69.0082, 58.128, -55.47, 40.9549, -26.8695
0, 0.02000, 2522.09, 33.0779, 2391.26, -81.0602, 2328.06, 154.695, 380.374, 1.41565, 7.83313, -177.388, 31.8484, 69.0083, 58.128, -55.4701, 40.9548, -26.8695
0, 0.02101, 2393.66, 29.5316, 2372.41, -88.696, 2306.24, 149.239, 155.394, -4.57742, 8.24023, 179.066, 32.0964, 61.3725, 58.683, -60.9256, 42.4199, -32.8034
0, 0.02101, 2393.66, 29.5316, 2372.41, -88.696, 2306.24, 149.239, 155.394, -4.57742, 8.24023, 179.066, 32.0964, 61.3725, 58.683, -60.9256, 42.4199, -32.8034
0, 0.02201, 2393.77, 29.5292, 2372.43, -88.6923, 2306.13, 149.238, 155.812, -4.59668, 8.23936, 179.064, 32.1026, 61.3762, 58.6783, -60.9269, 42.4131, -32.7929
0, 0.02201, 2393.77, 29.5292, 2372.43, -88.6923, 2306.13, 149.238, 155.812, -4.59668, 8.23936, 179.064, 32.1026, 61.3762, 58.6783, -60.9269, 42.4131, -32.7929
0, 0.02301, 2393.72, 29.5295, 2372.44, -88.6935, 2306.16, 149.239, 155.684, -4.61286, 8.23944, 179.064, 32.1006, 61.375, 58.681, -60.9261, 42.4167, -32.7963
0, 0.02301, 2393.72, 29.5295, 2372.44, -88.6935, 2306.16, 149.239, 155.684, -4.61286, 8.23944, 179.064, 32.1006, 61.375, 58.681, -60.9261, 42.4167, -32.7963
0, 0.02401, 2393.71, 29.5292, 2372.42, -88.6938, 2306.13, 149.238, 155.708, -4.6046, 8.23954, 179.064, 32.1012, 61.3747, 58.6804, -60.927, 42.4157, -32.7961
0, 0.02401, 2393.71, 29.5292, 2372.42, -88.6938, 2306.13, 149.238, 155.708, -4.6046, 8.23954, 179.064, 32.1012, 61.3747, 58.6804, -60.927, 42.4157, -32.7961
0, 0.02501, 2393.71, 29.5291, 2372.42, -88.6938, 2306.13, 149.238, 155.705, -4.60872, 8.23953, 179.064, 32.1013, 61.3747, 58.6808, -60.9269, 42.4162, -32.7962
0, 0.02501, 2393.71, 29.5291, 2372.42, -88.6938, 2306.13, 149.238, 155.705, -4.60872, 8.23953, 179.064, 32.1013, 61.3747, 58.6808, -60.9269, 42.4162, -32.7962
0, 0.02601, 2393.71, 29.5291, 2372.42, -88.6938, 2306.13, 149.238, 155.704, -4.60736, 8.23954, 179.064, 32.1012, 61.3747, 58.6808, -60.9269, 42.4161, -32.7962
0, 0.02601, 2393.71, 29.5291, 2372.42, -88.6938, 2306.13, 149.238, 155.704, -4.60736, 8.23954, 179.064, 32.1012, 61.3747, 58.6808, -60.9269, 42.4161, -32.7962
0, 0.02701, 2393.71, 29.5291, 2372.42, -88.6938, 2306.13, 149.238, 155.705, -4.60772, 8.23954, 179.064, 32.1013, 61.3747, 58.6808, -60.9269, 42.4161, -32.7962
0, 0.02701, 2393.71, 29.5291, 2372.42, -88.6938, 2306.13, 149.238, 155.705, -4.60772, 8.23954, 179.064, 32.1013, 61.3747, 58.6808, -60.9269, 42.4161, -32.7962
0, 0.02801, 2393.69, 29.5287, 2372.41, -88.6944, 2306.11, 149.238, 155.698, -4.61082, 8.2396, 179.063, 32.1014, 61.3741, 58.6812, -60.9273, 42.4165, -32.7968
0, 0.02801, 2393.69, 29.5287, 2372.41, -88.6944, 2306.11, 149.238, 155.698, -4.61082, 8.2396, 179.063, 32.1014, 61.3741, 58.6812, -60.9273, 42.4165, -32.7968
0, 0.02901, 2393.69, 29.5287, 2372.41, -88.6944, 2306.11, 149.238, 155.7, -4.6099, 8.23962, 179.063, 32.1015, 61.3741, 58.6813, -60.9274, 42.4166, -32.7968
0, 0.02901, 2393.69, 29.5287, 2372.41, -88.6944, 2306.11, 149.238, 155.7, -4.6099, 8.23962, 179.063, 32.1015, 61.3741, 58.6813, -60.9274, 42.4166, -32.7968
0, 0.03001, 2393.69, 29.5287, 2372.41, -88.6944, 2306.11, 149.238, 155.7, -4.61028, 8.23962, 179.063, 32.1015, 61.3741, 58.6814, -60.9273, 42.4166, -32.7968
0, 0.03001, 2393.69, 29.5287, 2372.41, -88.6944, 2306.11, 149.238, 155.7, -4.61028, 8.23962, 179.063, 32.1015, 61.3741, 58.6814, -60.9273, 42.4166, -32.7968
0, 0.03101, 2393.69, 29.5287, 2372.41, -88.6944, 2306.11, 149.238, 155.7, -4.61015, 8.23962, 179.063, 32.1015, 61.3741, 58.6813, -60.9273, 42.4166, -32.7968
0, 0.03101, 2393.69, 29.5287, 2372.41, -88.6944, 2306.11, 149.238, 155.7, -4.61015, 8.23962, 179.063, 32.1015, 61.3741, 58.6813, -60.9273, 42.4166, -32.7968
0, 0.03201, 2393.67, 29.5284, 2372.4, -88.6948, 2306.09, 149.237, 155.695, -4.61254, 8.23966, 179.063, 32.1015, 61.3737, 58.6817, -60.9277, 42.4169, -32.7973
0, 0.03201, 2393.67, 29.5284, 2372.4, -88.6948, 2306.09, 149.237, 155.695, -4.61254, 8.23966, 179.063, 32.1015, 61.3737, 58.6817, -60.9277, 42.4169, -32.7973
0, 0.03301, 2393.67, 29.5284, 2372.4, -88.6948, 2306.09, 149.237, 155.696, -4.61185, 8.23968, 179.063, 32.1016, 61.3737, 58.6818, -60.9277, 42.4169, -32.7973
0, 0.03301, 2393.67, 29.5284, 2372.4, -88.6948, 2306.09, 149.237, 155.696, -4.61185, 8.23968, 179.063, 32.1016, 61.3737, 58.6818, -60.9277, 42.4169, -32.7973
0, 0.03401, 2393.67, 29.5284, 2372.4, -88.6948, 2306.09, 149.237, 155.696, -4.61213, 8.23968, 179.063, 32.1016, 61.3737, 58.6818, -60.9277, 42.417, -32.7973
0, 0.03401, 2393.67, 29.5284, 2372.4, -88.6948, 2306.09, 149.237, 155.696, -4.61213, 8.23968, 179.063, 32.1016, 61.3737, 58.6818, -60.9277, 42.417, -32.7973
0, 0.03501, 2393.67, 29.5284, 2372.4, -88.6948, 2306.09, 149.237, 155.696, -4.61204, 8.23968, 179.063, 32.1016, 61.3737, 58.6818, -60.9277, 42.417, -32.7973
0, 0.03501, 2393.67, 29.5284, 2372.4, -88.6948, 2306.09, 149.237, 155.696, -4.61204, 8.23968, 179.063, 32.1016, 61.3737, 58.6818, -60.9277, 42.417, -32.7973
0, 0.03601, 2393.67, 29.5283, 2372.39, -88.6949, 2306.09, 149.237, 155.694, -4.61297, 8.23969, 179.063, 32.1016, 61.3735, 58.6819, -60.9278, 42.4171, -32.7975
0, 0.03601, 2393.67, 29.5283, 2372.39, -88.6949, 2306.09, 149.237, 155.694, -4.61297, 8.23969, 179.063, 32.1016, 61.3735, 58.6819, -60.9278, 42.4171, -32.7975
0, 0.03701, 2393.67, 29.5283, 2372.39, -88.6949, 2306.09, 149.237, 155.695, -4.6127, 8.2397, 179.063, 32.1017, 61.3736, 58.6819, -60.9278, 42.4171, -32.7974
0, 0.03701, 2393.67, 29.5283, 2372.39, -88.6949, 2306.09, 149.237, 155.695, -4.6127, 8.2397, 179.063, 32.1017, 61.3736, 58.6819, -60.9278, 42.4171, -32.7974
0, 0.03801, 2393.67, 29.5283, 2372.39, -88.6949, 2306.09, 149.237, 155.695, -4.61281, 8.2397, 179.063, 32.1017, 61.3736, 58.6819, -60.9278, 42.4171, -32.7974
0, 0.03801, 2393.67, 29.5283, 2372.39, -88.6949, 2306.09, 149.237, 155.695, -4.61281, 8.2397, 179.063, 32.1017, 61.3736, 58.6819, -60.9278, 42.4171, -32.7974
0, 0.03901, 2393.67, 29.5283, 2372.39, -88.6949, 2306.09, 149.237, 155.695, -4.61277, 8.2397, 179.063, 32.1017, 61.3736, 58.6819, -60.9278, 42.4171, -32.7974
0, 0.03901, 2393.67, 29.5283, 2372.39, -88.6949, 2306.09, 149.237, 155.695, -4.61277, 8.2397, 179.063, 32.1017, 61.3736, 58.6819, -60.9278, 42.4171, -32.7974
0, 0.04001, 2393.67, 29.5284, 2372.4, -88.6948, 2306.09, 149.237, 155.697, -4.6118, 8.23968, 179.063, 32.1016, 61.3737, 58.6818, -60.9277, 42.417, -32.7972
0, 0.04001, 2393.67, 29.5284, 2372.4, -88.6948, 2306.09, 149.237, 155.697, -4.6118, 8.23968, 179.063, 32.1016, 61.3737, 58.6818, -60.9277, 42.417, -32.7972
0, 0.04101, 2393.67, 29.5284, 2372.4, -88.6948, 2306.09, 149.237, 155.696, -4.61208, 8.23967, 179.063, 32.1016, 61.3737, 58.6818, -60.9277, 42.4169, -32.7973
0, 0.04101, 2393.67, 29.5284, 2372.4, -88.6948, 2306.09, 149.237, 155.696, -4.61208, 8.23967, 179.063, 32.1016, 61.3737, 58.6818, -60.9277, 42.4169, -32.7973
0, 0.04201, 2393.67, 29.5284, 2372.4, -88.6948, 2306.09, 149.237, 155.696, -4.61197, 8.23967, 179.063, 32.1016, 61.3737, 58.6818, -60.9277, 42.4169, -32.7973
0, 0.04201, 2393.67, 29.5284, 2372.4, -88.6948, 2306.09, 149.237, 155.696, -4.61197, 8.23967, 179.063, 32.1016, 61.3737, 58.6818, -60.9277, 42.4169, -32.7973
0, 0.04301, 2393.67, 29.5284, 2372.4, -88.6948, 2306.09, 149.237, 155.696, -4.612, 8.23967, 179.063, 32.1016, 61.3737, 58.6818, -60.9277, 42.4169, -32.7973
0, 0.04301, 2393.67, 29.5284, 2372.4, -88.6948, 2306.09, 149.237, 155.696, -4.612, 8.23967, 179.063, 32.1016, 61.3737, 58.6818, -60.9277, 42.4169, -32.7973
0, 0.04401, 2393.69, 29.5288, 2372.41, -88.6942, 2306.11, 149.238, 155.703, -4.60902, 8.23962, 179.063, 32.1015, 61.3743, 58.6813, -60.9272, 42.4166, -32.7966
0, 0.04401, 2393.69, 29.5288, 2372.41, -88.6942, 2306.11, 149.238, 155.703, -4.60902, 8.23962, 179.063, 32.1015, 61.3743, 58.6813, -60.9272, 42.4166, -32.7966
0, 0.04501, 2393.69, 29.5288, 2372.41, -88.6943, 2306.11, 149.238, 155.701, -4.60988, 8.2396, 179.063, 32.1014, 61.3742, 58.6812, -60.9272, 42.4165, -32.7967
0, 0.04501, 2393.69, 29.5288, 2372.41, -88.6943, 2306.11, 149.238, 155.701, -4.60988, 8.2396, 179.063, 32.1014, 61.3742, 58.6812, -60.9272, 42.4165, -32.7967
0, 0.04601, 2393.69, 29.5288, 2372.41, -88.6942, 2306.11, 149.238, 155.701, -4.60953, 8.2396, 179.063, 32.1014, 61.3742, 58.6812, -60.9272, 42.4165, -32.7967
0, 0.04601, 2393.69, 29.5288, 2372.41, -88.6942, 2306.11, 149.238, 155.701, -4.60953, 8.2396, 179.063, 32.1014, 61.3742, 58.6812, -60.9272, 42.4165, -32.7967
0, 0.04701, 2393.69, 29.5288, 2372.41, -88.6942, 2306.11, 149.238, 155.701, -4.60964, 8.2396, 179.063, 32.1014, 61.3742, 58.6812, -60.9272, 42.4165, -32.7967
0, 0.04701, 2393.69, 29.5288, 2372.41, -88.6942, 2306.11, 149.238, 155.701, -4.60964, 8.2396, 179.063, 32.1014, 61.3742, 58.6812, -60.9272, 42.4165, -32.7967
0, 0.04801, 2393.73, 29.5294, 2372.43, -88.6934, 2306.14, 149.238, 155.71, -4.60522, 8.23952, 179.064, 32.1013, 61.375, 58.6806, -60.9266, 42.416, -32.7958
0, 0.04801, 2393.73, 29.5294, 2372.43, -88.6934, 2306.14, 149.238, 155.71, -4.60522, 8.23952, 179.064, 32.1013, 61.375, 58.6806, -60.9266, 42.416, -32.7958
0, 0.04901, 2393.72, 29.5294, 2372.43, -88.6935, 2306.14, 149.238, 155.708, -4.6065, 8.23949, 179.064, 32.1011, 61.375, 58.6805, -60.9266, 42.4159, -32.7958
0, 0.04901, 2393.72, 29.5294, 2372.43, -88.6935, 2306.14, 149.238, 155.708, -4.6065, 8.23949, 179.064, 32.1011, 61.375, 58.6805, -60.9266, 42.4159, -32.7958
0, 0.05001, 2393.73, 29.5294, 2372.43, -88.6935, 2306.14, 149.238, 155.708, -4.60598, 8.23949, 179.064, 32.1011, 61.375, 58.6804, -60.9266, 42.4158, -32.7958
0, 0.05001, 2393.73, 29.5294, 2372.43, -88.6935, 2306.14, 149.238, 155.708, -4.60598, 8.23949, 179.064, 32.1011, 61.375, 58.6804, -60.9266, 42.4158, -32.7958
0, 0.05101, 2393.73, 29.5294, 2372.43, -88.6935, 2306.14, 149.238, 155.708, -4.60615, 8.23949, 179.064, 32.1011, 61.375, 58.6804, -60.9266, 42.4159, -32.7958
0, 0.05101, 2393.73, 29.5294, 2372.43, -88.6935, 2306.14, 149.238, 155.708, -4.60615, 8.23949, 179.064, 32.1011, 61.375, 58.6804, -60.9266, 42.4159, -32.7958
0, 0.05201, 2393.77, 29.5301, 2372.46, -88.6925, 2306.18, 149.239, 155.72, -4.6006, 8.2394, 179.065, 32.1009, 61.376, 58.6797, -60.9258, 42.4152, -32.7947
0, 0.05201, 2393.77, 29.5301, 2372.46, -88.6925, 2306.18, 149.239, 155.72, -4.6006, 8.2394, 179.065, 32.1009, 61.376, 58.6797, -60.9258, 42.4152, -32.7947
0, 0.05301, 2393.76, 29.5301, 2372.46, -88.6925, 2306.18, 149.239, 155.716, -4.6022, 8.23935, 179.065, 32.1008, 61.376, 58.6795, -60.9257, 42.4151, -32.7947
0, 0.05301, 2393.76, 29.5301, 2372.46, -88.6925, 2306.18, 149.239, 155.716, -4.6022, 8.23935, 179.065, 32.1008, 61.376, 58.6795, -60.9257, 42.4151, -32.7947
0, 0.05401, 2393.76, 29.5301, 2372.46, -88.6925, 2306.18, 149.239, 155.717, -4.60156, 8.23936, 179.065, 32.1008, 61.376, 58.6794, -60.9258, 42.415, -32.7947
0, 0.05401, 2393.76, 29.5301, 2372.46, -88.6925, 2306.18, 149.239, 155.717, -4.60156, 8.23936, 179.065, 32.1008, 61.376, 58.6794, -60.9258, 42.415, -32.7947
0, 0.05501, 2393.76, 29.5301, 2372.46, -88.6925, 2306.18, 149.239, 155.717, -4.60177, 8.23936, 179.065, 32.1008, 61.376, 58.6795, -60.9258, 42.4151, -32.7947
0, 0.05501, 2393.76, 29.5301, 2372.46, -88.6925, 2306.18, 149.239, 155.717, -4.60177, 8.23936, 179.065, 32.1008, 61.376, 58.6795, -60.9258, 42.4151, -32.7947
0, 0.05601, 2393.82, 29.5311, 2372.49, -88.6911, 2306.24, 149.24, 155.733, -4.59411, 8.23923, 179.066, 32.1005, 61.3774, 58.6784, -60.9246, 42.4141, -32.7932
0, 0.05601, 2393.82, 29.5311, 2372.49, -88.6911, 2306.24, 149.24, 155.733, -4.59411, 8.23923, 179.066, 32.1005, 61.3774, 58.6784, -60.9246, 42.4141, -32.7932
0, 0.05701, 2393.82, 29.5311, 2372.49, -88.6912, 2306.24, 149.24, 155.728, -4.59632, 8.23917, 179.066, 32.1003, 61.3773, 58.6781, -60.9246, 42.414, -32.7933
0, 0.05701, 2393.82, 29.5311, 2372.49, -88.6912, 2306.24, 149.24, 155.728, -4.59632, 8.23917, 179.066, 32.1003, 61.3773, 58.6781, -60.9246, 42.414, -32.7933
0, 0.05801, 2393.82, 29.5311, 2372.49, -88.6912, 2306.24, 149.24, 155.729, -4.59544, 8.23917, 179.066, 32.1003, 61.3773, 58.6781, -60.9246, 42.4139, -32.7932
0, 0.05801, 2393.82, 29.5311, 2372.49, -88.6912, 2306.24, 149.24, 155.729, -4.59544, 8.23917, 179.066, 32.1003, 61.3773, 58.6781, -60.9246, 42.4139, -32.7932
0, 0.05901, 2393.82, 29.5311, 2372.49, -88.6912, 2306.24, 149.24, 155.729, -4.59572, 8.23917, 179.066, 32.1003, 61.3773, 58.6781, -60.9246, 42.4139, -32.7932
0, 0.05901, 2393.82, 29.5311, 2372.49, -88.6912, 2306.24, 149.24, 155.729, -4.59572, 8.23917, 179.066, 32.1003, 61.3773, 58.6781, -60.9246, 42.4139, -32.7932
0, 0.06001, 2393.89, 29.5324, 2372.54, -88.6894, 2306.31, 149.242, 155.75, -4.58559, 8.239, 179.067, 32.0999, 61.3791, 58.6767, -60.9231, 42.4127, -32.7912
0, 0.06001, 2393.89, 29.5324, 2372.54, -88.6894, 2306.31, 149.242, 155.75, -4.58559, 8.239, 179.067, 32.0999, 61.3791, 58.6767, -60.9231, 42.4127, -32.7912
0, 0.06101, 2393.89, 29.5324, 2372.54, -88.6895, 2306.31, 149.242, 155.744, -4.58852, 8.23892, 179.067, 32.0996, 61.379, 58.6764, -60.9231, 42.4125, -32.7913
0, 0.06101, 2393.89, 29.5324, 2372.54, -88.6895, 2306.31, 149.242, 155.744, -4.58852, 8.23892, 179.067, 32.0996, 61.379, 58.6764, -60.9231, 42.4125, -32.7913
