hour, t(sec), S1 (kVA), Ang1, S2 (kVA), Ang2
0, 1.00000, 2000, -179.991, 0, 0
0, 0.00000, 2000.16, -179.994, 0, 0
0, 0.00000, 2000.16, -179.994, 0, 0
0, 0.00101, 1999.98, 179.998, 0, 0
0, 0.00101, 1999.98, 179.998, 0, 0
0, 0.00201, 2000, -179.999, 0, 0
0, 0.00201, 2000, -179.999, 0, 0
0, 0.00301, 2000, 180, 0, 0
0, 0.00301, 2000, 180, 0, 0
0, 0.00401, 2000, -180, 0, 0
0, 0.00401, 2000, -180, 0, 0
0, 0.00501, 2000, 180, 0, 0
0, 0.00501, 2000, 180, 0, 0
0, 0.00601, 2000, -180, 0, 0
0, 0.00601, 2000, -180, 0, 0
0, 0.00701, 2000, -180, 0, 0
0, 0.00701, 2000, -180, 0, 0
0, 0.00801, 2000, -180, 0, 0
0, 0.00801, 2000, -180, 0, 0
0, 0.00901, 2000, 180, 0, 0
0, 0.00901, 2000, 180, 0, 0
0, 0.01001, 2000, -180, 0, 0
0, 0.01001, 2000, -180, 0, 0
0, 0.01101, 2000, 180, 0, 0
0, 0.01101, 2000, 180, 0, 0
0, 0.01201, 2000, 180, 0, 0
0, 0.01201, 2000, 180, 0, 0
0, 0.01301, 2000, -180, 0, 0
0, 0.01301, 2000, -180, 0, 0
0, 0.01401, 2000, 180, 0, 0
0, 0.01401, 2000, 180, 0, 0
0, 0.01501, 2000, -180, 0, 0
0, 0.01501, 2000, -180, 0, 0
0, 0.01601, 2000, -179.999, 0, 0
0, 0.01601, 2000, -179.999, 0, 0
0, 0.01701, 2000, 180, 0, 0
0, 0.01701, 2000, 180, 0, 0
0, 0.01801, 2000, -180, 0, 0
0, 0.01801, 2000, -180, 0, 0
0, 0.01901, 2000, 180, 0, 0
0, 0.01901, 2000, 180, 0, 0
0, 0.02001, 2000, 180, 0, 0
0, 0.02001, 2000, 180, 0, 0
0, 0.02000, 2000, -180, 0, 0
0, 0.02101, 546.002, 179.996, 0, 0
0, 0.02101, 546.002, 179.996, 0, 0
0, 0.02201, 545.993, -179.999, 0, 0
0, 0.02201, 545.993, -179.999, 0, 0
0, 0.02301, 546.004, 180, 0, 0
0, 0.02301, 546.004, 180, 0, 0
0, 0.02401, 545.995, -180, 0, 0
0, 0.02401, 545.995, -180, 0, 0
0, 0.02501, 546.001, 180, 0, 0
0, 0.02501, 546.001, 180, 0, 0
0, 0.02601, 546, 180, 0, 0
0, 0.02601, 546, 180, 0, 0
0, 0.02701, 546, -180, 0, 0
0, 0.02701, 546, -180, 0, 0
0, 0.02801, 546, 180, 0, 0
0, 0.02801, 546, 180, 0, 0
0, 0.02901, 546, -180, 0, 0
0, 0.02901, 546, -180, 0, 0
0, 0.03001, 546, 180, 0, 0
0, 0.03001, 546, 180, 0, 0
0, 0.03101, 546, -180, 0, 0
0, 0.03101, 546, -180, 0, 0
0, 0.03201, 545.998, -180, 0, 0
0, 0.03201, 545.998, -180, 0, 0
0, 0.03301, 546, 180, 0, 0
0, 0.03301, 546, 180, 0, 0
0, 0.03401, 546, -180, 0, 0
0, 0.03401, 546, -180, 0, 0
0, 0.03501, 546, -180, 0, 0
0, 0.03501, 546, -180, 0, 0
0, 0.03601, 546, 180, 0, 0
0, 0.03601, 546, 180, 0, 0
0, 0.03701, 546, -180, 0, 0
0, 0.03701, 546, -180, 0, 0
0, 0.03801, 546, 180, 0, 0
0, 0.03801, 546, 180, 0, 0
0, 0.03901, 546, -180, 0, 0
0, 0.03901, 546, -180, 0, 0
0, 0.04001, 545.998, -180, 0, 0
0, 0.04001, 545.998, -180, 0, 0
0, 0.04101, 546, 180, 0, 0
0, 0.04101, 546, 180, 0, 0
0, 0.04201, 546, -180, 0, 0
0, 0.04201, 546, -180, 0, 0
0, 0.04301, 546, -180, 0, 0
0, 0.04301, 546, -180, 0, 0
0, 0.04401, 546, 180, 0, 0
0, 0.04401, 546, 180, 0, 0
0, 0.04501, 546, -180, 0, 0
0, 0.04501, 546, -180, 0, 0
0, 0.04601, 546, 180, 0, 0
0, 0.04601, 546, 180, 0, 0
0, 0.04701, 546, -180, 0, 0
0, 0.04701, 546, -180, 0, 0
0, 0.04801, 545.998, -180, 0, 0
0, 0.04801, 545.998, -180, 0, 0
0, 0.04901, 546, 180, 0, 0
0, 0.04901, 546, 180, 0, 0
0, 0.05001, 546, -180, 0, 0
0, 0.05001, 546, -180, 0, 0
0, 0.05000, 546, -180, 0, 0
0, 0.05000, 546, 180, 0, 0
0, 0.05000, 546, -180, 0, 0
0, 0.05101, 546, 180, 0, 0
0, 0.05101, 546, 180, 0, 0
0, 0.05201, 546, -180, 0, 0
0, 0.05201, 546, -180, 0, 0
0, 0.05301, 546, 180, 0, 0
0, 0.05301, 546, 180, 0, 0
0, 0.05401, 546, -180, 0, 0
0, 0.05401, 546, -180, 0, 0
0, 0.05501, 546, -180, 0, 0
0, 0.05501, 546, -180, 0, 0
0, 0.05601, 545.998, -180, 0, 0
0, 0.05601, 545.998, -180, 0, 0
0, 0.05701, 546, 180, 0, 0
0, 0.05701, 546, 180, 0, 0
0, 0.05801, 546, -180, 0, 0
0, 0.05801, 546, -180, 0, 0
0, 0.05901, 546, -180, 0, 0
0, 0.05901, 546, -180, 0, 0
0, 0.06001, 546, 180, 0, 0
0, 0.06001, 546, 180, 0, 0
0, 0.06101, 546, -180, 0, 0
0, 0.06101, 546, -180, 0, 0
0, 0.06201, 546, 180, 0, 0
0, 0.06201, 546, 180, 0, 0
0, 0.06301, 546, -180, 0, 0
0, 0.06301, 546, -180, 0, 0
0, 0.06401, 545.999, -180, 0, 0
0, 0.06401, 545.999, -180, 0, 0
0, 0.06501, 546, 180, 0, 0
0, 0.06501, 546, 180, 0, 0
0, 0.06601, 546, -180, 0, 0
0, 0.06601, 546, -180, 0, 0
0, 0.06701, 546, -180, 0, 0
0, 0.06701, 546, -180, 0, 0
0, 0.06801, 546, 180, 0, 0
0, 0.06801, 546, 180, 0, 0
0, 0.06901, 546, -180, 0, 0
0, 0.06901, 546, -180, 0, 0
0, 0.07001, 546, 180, 0, 0
0, 0.07001, 546, 180, 0, 0
0, 0.07101, 546, -180, 0, 0
0, 0.07101, 546, -180, 0, 0
0, 0.07201, 546, -180, 0, 0
0, 0.07201, 546, -180, 0, 0
0, 0.07301, 546, 180, 0, 0
0, 0.07301, 546, 180, 0, 0
0, 0.07401, 546, -180, 0, 0
0, 0.07401, 546, -180, 0, 0
0, 0.07501, 546, -180, 0, 0
0, 0.07501, 546, -180, 0, 0
0, 0.07601, 546, 180, 0, 0
0, 0.07601, 546, 180, 0, 0
0, 0.07701, 546, -180, 0, 0
0, 0.07701, 546, -180, 0, 0
0, 0.07801, 546, 180, 0, 0
0, 0.07801, 546, 180, 0, 0
0, 0.07901, 546, -180, 0, 0
0, 0.07901, 546, -180, 0, 0
0, 0.08001, 546.001, 180, 0, 0
0, 0.08001, 546.001, 180, 0, 0
0, 0.08101, 546, -180, 0, 0
0, 0.08101, 546, -180, 0, 0
0, 0.08201, 546, 180, 0, 0
0, 0.08201, 546, 180, 0, 0
0, 0.08301, 546, 180, 0, 0
0, 0.08301, 546, 180, 0, 0
0, 0.08401, 546, -180, 0, 0
0, 0.08401, 546, -180, 0, 0
0, 0.08501, 546, 180, 0, 0
0, 0.08501, 546, 180, 0, 0
0, 0.08601, 546, -180, 0, 0
0, 0.08601, 546, -180, 0, 0
0, 0.08701, 546, 180, 0, 0
0, 0.08701, 546, 180, 0, 0
0, 0.08801, 546.002, 180, 0, 0
0, 0.08801, 546.002, 180, 0, 0
0, 0.08901, 546, -180, 0, 0
0, 0.08901, 546, -180, 0, 0
0, 0.09001, 546, 180, 0, 0
0, 0.09001, 546, 180, 0, 0
0, 0.09101, 546, 180, 0, 0
0, 0.09101, 546, 180, 0, 0
0, 0.09201, 546, -180, 0, 0
0, 0.09201, 546, -180, 0, 0
0, 0.09301, 546, 180, 0, 0
0, 0.09301, 546, 180, 0, 0
0, 0.09401, 546, -180, 0, 0
0, 0.09401, 546, -180, 0, 0
0, 0.09501, 546, 180, 0, 0
0, 0.09501, 546, 180, 0, 0
0, 0.09601, 546.002, 180, 0, 0
0, 0.09601, 546.002, 180, 0, 0
0, 0.09701, 546, -180, 0, 0
0, 0.09701, 546, -180, 0, 0
0, 0.09801, 546, 180, 0, 0
0, 0.09801, 546, 180, 0, 0
0, 0.09901, 546, 180, 0, 0
0, 0.09901, 546, 180, 0, 0
0, 0.10001, 546, -180, 0, 0
0, 0.10001, 546, -180, 0, 0
0, 0.10101, 546, 180, 0, 0
0, 0.10101, 546, 180, 0, 0
0, 0.10201, 546, -180, 0, 0
0, 0.10201, 546, -180, 0, 0
0, 0.10301, 546, 180, 0, 0
0, 0.10301, 546, 180, 0, 0
0, 0.10401, 546.003, 180, 0, 0
0, 0.10401, 546.003, 180, 0, 0
0, 0.10501, 546, -180, 0, 0
0, 0.10501, 546, -180, 0, 0
0, 0.10601, 546, 180, 0, 0
0, 0.10601, 546, 180, 0, 0
0, 0.10701, 546, 180, 0, 0
0, 0.10701, 546, 180, 0, 0
0, 0.10801, 546, -180, 0, 0
0, 0.10801, 546, -180, 0, 0
0, 0.10901, 546, 180, 0, 0
0, 0.10901, 546, 180, 0, 0
0, 0.11001, 546, -180, 0, 0
0, 0.11001, 546, -180, 0, 0
0, 0.11101, 546, 180, 0, 0
0, 0.11101, 546, 180, 0, 0
0, 0.11201, 546.004, 179.999, 0, 0
0, 0.11201, 546.004, 179.999, 0, 0
0, 0.11301, 545.999, -180, 0, 0
0, 0.11301, 545.999, -180, 0, 0
0, 0.11401, 546, 180, 0, 0
0, 0.11401, 546, 180, 0, 0
0, 0.11501, 546, 180, 0, 0
0, 0.11501, 546, 180, 0, 0
0, 0.11601, 546, -180, 0, 0
0, 0.11601, 546, -180, 0, 0
0, 0.11701, 546, 180, 0, 0
0, 0.11701, 546, 180, 0, 0
0, 0.11801, 546, -180, 0, 0
0, 0.11801, 546, -180, 0, 0
0, 0.11901, 546, 180, 0, 0
0, 0.11901, 546, 180, 0, 0
0, 0.12000, 546.005, 179.999, 0, 0
0, 0.12000, 546.005, 179.999, 0, 0
0, 0.12001, 545.999, -180, 0, 0
0, 0.12001, 545.999, -180, 0, 0
0, 0.12101, 546, 180, 0, 0
0, 0.12101, 546, 180, 0, 0
0, 0.12201, 546, 180, 0, 0
0, 0.12201, 546, 180, 0, 0
0, 0.12301, 546, -180, 0, 0
0, 0.12301, 546, -180, 0, 0
0, 0.12401, 546, 180, 0, 0
0, 0.12401, 546, 180, 0, 0
0, 0.12501, 546, -180, 0, 0
0, 0.12501, 546, -180, 0, 0
0, 0.12601, 546, 180, 0, 0
0, 0.12601, 546, 180, 0, 0
0, 0.12701, 546, -180, 0, 0
0, 0.12701, 546, -180, 0, 0
0, 0.12801, 546.006, 179.999, 0, 0
0, 0.12801, 546.006, 179.999, 0, 0
0, 0.12901, 545.999, -180, 0, 0
0, 0.12901, 545.999, -180, 0, 0
0, 0.13001, 546, 180, 0, 0
0, 0.13001, 546, 180, 0, 0
0, 0.13101, 546, 180, 0, 0
0, 0.13101, 546, 180, 0, 0
0, 0.13201, 546, -180, 0, 0
0, 0.13201, 546, -180, 0, 0
0, 0.13301, 546, 180, 0, 0
0, 0.13301, 546, 180, 0, 0
0, 0.13401, 546, -180, 0, 0
0, 0.13401, 546, -180, 0, 0
0, 0.13501, 546, 180, 0, 0
0, 0.13501, 546, 180, 0, 0
0, 0.13601, 546.007, 179.999, 0, 0
0, 0.13601, 546.007, 179.999, 0, 0
0, 0.13701, 545.999, -180, 0, 0
0, 0.13701, 545.999, -180, 0, 0
0, 0.13801, 546, 180, 0, 0
0, 0.13801, 546, 180, 0, 0
0, 0.13901, 546, 180, 0, 0
0, 0.13901, 546, 180, 0, 0
0, 0.14001, 546, -180, 0, 0
0, 0.14001, 546, -180, 0, 0
0, 0.14101, 546, 180, 0, 0
0, 0.14101, 546, 180, 0, 0
0, 0.14201, 546, -180, 0, 0
0, 0.14201, 546, -180, 0, 0
0, 0.14301, 546, 180, 0, 0
0, 0.14301, 546, 180, 0, 0
0, 0.14401, 546.007, 179.999, 0, 0
0, 0.14401, 546.007, 179.999, 0, 0
0, 0.14501, 545.999, -180, 0, 0
0, 0.14501, 545.999, -180, 0, 0
0, 0.14601, 546, 180, 0, 0
0, 0.14601, 546, 180, 0, 0
0, 0.14701, 546, 180, 0, 0
0, 0.14701, 546, 180, 0, 0
0, 0.14801, 546, -180, 0, 0
0, 0.14801, 546, -180, 0, 0
0, 0.14901, 546, 180, 0, 0
0, 0.14901, 546, 180, 0, 0
0, 0.15001, 546, -180, 0, 0
0, 0.15001, 546, -180, 0, 0
0, 0.15101, 546, 180, 0, 0
0, 0.15101, 546, 180, 0, 0
0, 0.15201, 546.008, 179.999, 0, 0
0, 0.15201, 546.008, 179.999, 0, 0
0, 0.15301, 545.999, -180, 0, 0
0, 0.15301, 545.999, -180, 0, 0
0, 0.15401, 546, 180, 0, 0
0, 0.15401, 546, 180, 0, 0
0, 0.15501, 546, 180, 0, 0
0, 0.15501, 546, 180, 0, 0
0, 0.15601, 546, -180, 0, 0
0, 0.15601, 546, -180, 0, 0
0, 0.15701, 546, 180, 0, 0
0, 0.15701, 546, 180, 0, 0
0, 0.15801, 546, -180, 0, 0
0, 0.15801, 546, -180, 0, 0
0, 0.15901, 546, 180, 0, 0
0, 0.15901, 546, 180, 0, 0
0, 0.16001, 546.008, 179.999, 0, 0
0, 0.16001, 546.008, 179.999, 0, 0
0, 0.16000, 545.999, -180, 0, 0
0, 0.16101, 546, 180, 0, 0
0, 0.16101, 546, 180, 0, 0
0, 0.16201, 546, 180, 0, 0
0, 0.16201, 546, 180, 0, 0
0, 0.16301, 546, -180, 0, 0
0, 0.16301, 546, -180, 0, 0
0, 0.16401, 546, 180, 0, 0
0, 0.16401, 546, 180, 0, 0
0, 0.16501, 546, -180, 0, 0
0, 0.16501, 546, -180, 0, 0
0, 0.16601, 546, 180, 0, 0
0, 0.16601, 546, 180, 0, 0
0, 0.16701, 546, -180, 0, 0
0, 0.16701, 546, -180, 0, 0
0, 0.16801, 546.008, 179.999, 0, 0
0, 0.16801, 546.008, 179.999, 0, 0
0, 0.16901, 545.999, -180, 0, 0
0, 0.16901, 545.999, -180, 0, 0
0, 0.17001, 546, 180, 0, 0
0, 0.17001, 546, 180, 0, 0
0, 0.17101, 546, 180, 0, 0
0, 0.17101, 546, 180, 0, 0
0, 0.17201, 546, -180, 0, 0
0, 0.17201, 546, -180, 0, 0
0, 0.17301, 546, 180, 0, 0
0, 0.17301, 546, 180, 0, 0
0, 0.17401, 546, -180, 0, 0
0, 0.17401, 546, -180, 0, 0
0, 0.17501, 546, 180, 0, 0
0, 0.17501, 546, 180, 0, 0
0, 0.17601, 546.008, 179.999, 0, 0
0, 0.17601, 546.008, 179.999, 0, 0
0, 0.17701, 545.999, -180, 0, 0
0, 0.17701, 545.999, -180, 0, 0
0, 0.17801, 546, 180, 0, 0
0, 0.17801, 546, 180, 0, 0
0, 0.17901, 546, 180, 0, 0
0, 0.17901, 546, 180, 0, 0
0, 0.18001, 546, -180, 0, 0
0, 0.18001, 546, -180, 0, 0
0, 0.18101, 546, 180, 0, 0
0, 0.18101, 546, 180, 0, 0
0, 0.18201, 546, -180, 0, 0
0, 0.18201, 546, -180, 0, 0
0, 0.18301, 546, 180, 0, 0
0, 0.18301, 546, 180, 0, 0
0, 0.18401, 546.008, 179.999, 0, 0
0, 0.18401, 546.008, 179.999, 0, 0
0, 0.18501, 545.999, -180, 0, 0
0, 0.18501, 545.999, -180, 0, 0
0, 0.18601, 546, 180, 0, 0
0, 0.18601, 546, 180, 0, 0
0, 0.18701, 546, 180, 0, 0
0, 0.18701, 546, 180, 0, 0
0, 0.18801, 546, -180, 0, 0
0, 0.18801, 546, -180, 0, 0
0, 0.18901, 546, 180, 0, 0
0, 0.18901, 546, 180, 0, 0
0, 0.19001, 546, -180, 0, 0
0, 0.19001, 546, -180, 0, 0
0, 0.19101, 546, 180, 0, 0
0, 0.19101, 546, 180, 0, 0
0, 0.19201, 546.008, 179.999, 0, 0
0, 0.19201, 546.008, 179.999, 0, 0
0, 0.19301, 545.999, -180, 0, 0
0, 0.19301, 545.999, -180, 0, 0
0, 0.19401, 546, 180, 0, 0
0, 0.19401, 546, 180, 0, 0
0, 0.19501, 546, 180, 0, 0
0, 0.19501, 546, 180, 0, 0
0, 0.19601, 546, -180, 0, 0
0, 0.19601, 546, -180, 0, 0
0, 0.19701, 546, 180, 0, 0
0, 0.19701, 546, 180, 0, 0
0, 0.19801, 546, -180, 0, 0
0, 0.19801, 546, -180, 0, 0
0, 0.19901, 546, 180, 0, 0
0, 0.19901, 546, 180, 0, 0
0, 0.20001, 546.007, 179.999, 0, 0
0, 0.20001, 546.007, 179.999, 0, 0
0, 0.20101, 545.999, -180, 0, 0
0, 0.20101, 545.999, -180, 0, 0
0, 0.20201, 546, 180, 0, 0
0, 0.20201, 546, 180, 0, 0
0, 0.20301, 546, 180, 0, 0
0, 0.20301, 546, 180, 0, 0
0, 0.20401, 546, -180, 0, 0
0, 0.20401, 546, -180, 0, 0
0, 0.20501, 546, 180, 0, 0
0, 0.20501, 546, 180, 0, 0
0, 0.20601, 546, -180, 0, 0
0, 0.20601, 546, -180, 0, 0
0, 0.20701, 546, 180, 0, 0
0, 0.20701, 546, 180, 0, 0
0, 0.20801, 546.006, 179.999, 0, 0
0, 0.20801, 546.006, 179.999, 0, 0
0, 0.20901, 545.999, -180, 0, 0
0, 0.20901, 545.999, -180, 0, 0
0, 0.21001, 546, 180, 0, 0
0, 0.21001, 546, 180, 0, 0
0, 0.21101, 546, 180, 0, 0
0, 0.21101, 546, 180, 0, 0
0, 0.21201, 546, -180, 0, 0
0, 0.21201, 546, -180, 0, 0
0, 0.21301, 546, 180, 0, 0
0, 0.21301, 546, 180, 0, 0
0, 0.21401, 546, -180, 0, 0
0, 0.21401, 546, -180, 0, 0
0, 0.21501, 546, 180, 0, 0
0, 0.21501, 546, 180, 0, 0
0, 0.21601, 546.006, 179.999, 0, 0
0, 0.21601, 546.006, 179.999, 0, 0
0, 0.21701, 545.999, -180, 0, 0
0, 0.21701, 545.999, -180, 0, 0
0, 0.21801, 546, 180, 0, 0
0, 0.21801, 546, 180, 0, 0
0, 0.21901, 546, 180, 0, 0
0, 0.21901, 546, 180, 0, 0
0, 0.22001, 546, -180, 0, 0
0, 0.22001, 546, -180, 0, 0
0, 0.22000, 546, 180, 0, 0
0, 0.22000, 546, 180, 0, 0
0, 0.22101, 546, -180, 0, 0
0, 0.22101, 546, -180, 0, 0
0, 0.22201, 546, 180, 0, 0
0, 0.22201, 546, 180, 0, 0
0, 0.22301, 546, -180, 0, 0
0, 0.22301, 546, -180, 0, 0
0, 0.22401, 546.006, 179.999, 0, 0
0, 0.22401, 546.006, 179.999, 0, 0
0, 0.22501, 545.999, -180, 0, 0
0, 0.22501, 545.999, -180, 0, 0
0, 0.22601, 546, 180, 0, 0
0, 0.22601, 546, 180, 0, 0
0, 0.22701, 546, 180, 0, 0
0, 0.22701, 546, 180, 0, 0
0, 0.22801, 546, -180, 0, 0
0, 0.22801, 546, -180, 0, 0
0, 0.22901, 546, 180, 0, 0
0, 0.22901, 546, 180, 0, 0
0, 0.23001, 546, -180, 0, 0
0, 0.23001, 546, -180, 0, 0
0, 0.23000, 546, 180, 0, 0
0, 0.23000, 546, -180, 0, 0
0, 0.23000, 546, 180, 0, 0
0, 0.23101, 546, 180, 0, 0
0, 0.23101, 546, 180, 0, 0
0, 0.23201, 546.006, 179.999, 0, 0
0, 0.23201, 546.006, 179.999, 0, 0
0, 0.23301, 545.999, -180, 0, 0
0, 0.23301, 545.999, -180, 0, 0
0, 0.23401, 546, 180, 0, 0
0, 0.23401, 546, 180, 0, 0
0, 0.23501, 546, 180, 0, 0
0, 0.23501, 546, 180, 0, 0
0, 0.23601, 546, -180, 0, 0
0, 0.23601, 546, -180, 0, 0
0, 0.23701, 546, 180, 0, 0
0, 0.23701, 546, 180, 0, 0
0, 0.23801, 546, -180, 0, 0
0, 0.23801, 546, -180, 0, 0
0, 0.23901, 546, 180, 0, 0
0, 0.23901, 546, 180, 0, 0
0, 0.24000, 546.005, 179.999, 0, 0
0, 0.24001, 523.036, 179.999, 0, 0
0, 0.24001, 523.036, 179.999, 0, 0
0, 0.24101, 522.989, 180, 0, 0
0, 0.24101, 522.989, 180, 0, 0
0, 0.24201, 523.003, -180, 0, 0
0, 0.24201, 523.003, -180, 0, 0
0, 0.24301, 523, 180, 0, 0
0, 0.24301, 523, 180, 0, 0
0, 0.24401, 523, -180, 0, 0
0, 0.24401, 523, -180, 0, 0
0, 0.24501, 523, 180, 0, 0
0, 0.24501, 523, 180, 0, 0
0, 0.24601, 523, -180, 0, 0
0, 0.24601, 523, -180, 0, 0
0, 0.24701, 523, 180, 0, 0
0, 0.24701, 523, 180, 0, 0
0, 0.24801, 523.004, 179.999, 0, 0
0, 0.24801, 523.004, 179.999, 0, 0
0, 0.24901, 522.999, -180, 0, 0
0, 0.24901, 522.999, -180, 0, 0
0, 0.25001, 523, 180, 0, 0
0, 0.25001, 523, 180, 0, 0
0, 0.25101, 523, 180, 0, 0
0, 0.25101, 523, 180, 0, 0
0, 0.25201, 523, -180, 0, 0
0, 0.25201, 523, -180, 0, 0
0, 0.25301, 523, 180, 0, 0
0, 0.25301, 523, 180, 0, 0
0, 0.25401, 523, -180, 0, 0
0, 0.25401, 523, -180, 0, 0
0, 0.25501, 523, 180, 0, 0
0, 0.25501, 523, 180, 0, 0
0, 0.25601, 523.005, 179.999, 0, 0
0, 0.25601, 523.005, 179.999, 0, 0
0, 0.25701, 522.999, -180, 0, 0
0, 0.25701, 522.999, -180, 0, 0
0, 0.25801, 523, 180, 0, 0
0, 0.25801, 523, 180, 0, 0
0, 0.25901, 523, 180, 0, 0
0, 0.25901, 523, 180, 0, 0
0, 0.26001, 523, -180, 0, 0
0, 0.26001, 523, -180, 0, 0
0, 0.26101, 523, 180, 0, 0
0, 0.26101, 523, 180, 0, 0
0, 0.26201, 523, -180, 0, 0
0, 0.26201, 523, -180, 0, 0
0, 0.26301, 523, 180, 0, 0
0, 0.26301, 523, 180, 0, 0
0, 0.26401, 523.005, 179.999, 0, 0
0, 0.26401, 523.005, 179.999, 0, 0
0, 0.26501, 522.999, -180, 0, 0
0, 0.26501, 522.999, -180, 0, 0
0, 0.26601, 523, 180, 0, 0
0, 0.26601, 523, 180, 0, 0
0, 0.26701, 523, 180, 0, 0
0, 0.26701, 523, 180, 0, 0
0, 0.26801, 523, -180, 0, 0
0, 0.26801, 523, -180, 0, 0
0, 0.26901, 523, 180, 0, 0
0, 0.26901, 523, 180, 0, 0
0, 0.27001, 523, -180, 0, 0
0, 0.27001, 523, -180, 0, 0
0, 0.27101, 523, 180, 0, 0
0, 0.27101, 523, 180, 0, 0
0, 0.27201, 523.005, 179.999, 0, 0
0, 0.27201, 523.005, 179.999, 0, 0
0, 0.27301, 522.999, -180, 0, 0
0, 0.27301, 522.999, -180, 0, 0
0, 0.27401, 523, 180, 0, 0
0, 0.27401, 523, 180, 0, 0
0, 0.27501, 523, 180, 0, 0
0, 0.27501, 523, 180, 0, 0
0, 0.27601, 523, -180, 0, 0
0, 0.27601, 523, -180, 0, 0
0, 0.27701, 523, 180, 0, 0
0, 0.27701, 523, 180, 0, 0
0, 0.27801, 523, -180, 0, 0
0, 0.27801, 523, -180, 0, 0
0, 0.27901, 523, 180, 0, 0
0, 0.27901, 523, 180, 0, 0
0, 0.28001, 523.005, 179.999, 0, 0
0, 0.28001, 523.005, 179.999, 0, 0
0, 0.28101, 522.999, -180, 0, 0
0, 0.28101, 522.999, -180, 0, 0
0, 0.28201, 523, 180, 0, 0
0, 0.28201, 523, 180, 0, 0
0, 0.28301, 523, 180, 0, 0
0, 0.28301, 523, 180, 0, 0
0, 0.28401, 523, -180, 0, 0
0, 0.28401, 523, -180, 0, 0
0, 0.28501, 523, 180, 0, 0
0, 0.28501, 523, 180, 0, 0
0, 0.28601, 523, -180, 0, 0
0, 0.28601, 523, -180, 0, 0
0, 0.28701, 523, 180, 0, 0
0, 0.28701, 523, 180, 0, 0
0, 0.28801, 523.005, 179.999, 0, 0
0, 0.28801, 523.005, 179.999, 0, 0
0, 0.28901, 522.999, -180, 0, 0
0, 0.28901, 522.999, -180, 0, 0
0, 0.29001, 523.014, 179.995, 0, 0
0, 0.29001, 523.014, 179.995, 0, 0
0, 0.29101, 522.988, -179.999, 0, 0
0, 0.29101, 522.988, -179.999, 0, 0
0, 0.29201, 523.006, 180, 0, 0
0, 0.29201, 523.006, 180, 0, 0
0, 0.29301, 522.998, 180, 0, 0
0, 0.29301, 522.998, 180, 0, 0
0, 0.29401, 523.001, -180, 0, 0
0, 0.29401, 523.001, -180, 0, 0
0, 0.29501, 523, 180, 0, 0
0, 0.29501, 523, 180, 0, 0
0, 0.29601, 523.006, 179.999, 0, 0
0, 0.29601, 523.006, 179.999, 0, 0
0, 0.29701, 522.999, -180, 0, 0
0, 0.29701, 522.999, -180, 0, 0
0, 0.29801, 523, 180, 0, 0
0, 0.29801, 523, 180, 0, 0
0, 0.29901, 523, 180, 0, 0
0, 0.29901, 523, 180, 0, 0
0, 0.30001, 523, -180, 0, 0
0, 0.30001, 523, -180, 0, 0
0, 0.30101, 523, 180, 0, 0
0, 0.30101, 523, 180, 0, 0
0, 0.30201, 523, -180, 0, 0
0, 0.30201, 523, -180, 0, 0
0, 0.30301, 523, 180, 0, 0
0, 0.30301, 523, 180, 0, 0
0, 0.30401, 523.006, 179.999, 0, 0
0, 0.30401, 523.006, 179.999, 0, 0
0, 0.30501, 522.999, -180, 0, 0
0, 0.30501, 522.999, -180, 0, 0
0, 0.30601, 523, 180, 0, 0
0, 0.30601, 523, 180, 0, 0
0, 0.30701, 523, 180, 0, 0
0, 0.30701, 523, 180, 0, 0
0, 0.30801, 523, -180, 0, 0
0, 0.30801, 523, -180, 0, 0
0, 0.30901, 523, 180, 0, 0
0, 0.30901, 523, 180, 0, 0
0, 0.31001, 523, -180, 0, 0
0, 0.31001, 523, -180, 0, 0
0, 0.31101, 523, 180, 0, 0
0, 0.31101, 523, 180, 0, 0
0, 0.31201, 523.006, 179.999, 0, 0
0, 0.31201, 523.006, 179.999, 0, 0
0, 0.31301, 522.999, -180, 0, 0
0, 0.31301, 522.999, -180, 0, 0
0, 0.31401, 523, 180, 0, 0
0, 0.31401, 523, 180, 0, 0
0, 0.31501, 523, 180, 0, 0
0, 0.31501, 523, 180, 0, 0
0, 0.31601, 523, -180, 0, 0
0, 0.31601, 523, -180, 0, 0
0, 0.31701, 523, 180, 0, 0
0, 0.31701, 523, 180, 0, 0
0, 0.31801, 523, -180, 0, 0
0, 0.31801, 523, -180, 0, 0
0, 0.31901, 523, 180, 0, 0
0, 0.31901, 523, 180, 0, 0
0, 0.32001, 523.007, 179.999, 0, 0
0, 0.32001, 523.007, 179.999, 0, 0
0, 0.32101, 522.999, -180, 0, 0
0, 0.32101, 522.999, -180, 0, 0
0, 0.32201, 523, 180, 0, 0
0, 0.32201, 523, 180, 0, 0
0, 0.32301, 523, 180, 0, 0
0, 0.32301, 523, 180, 0, 0
0, 0.32401, 523, -180, 0, 0
0, 0.32401, 523, -180, 0, 0
0, 0.32501, 523, 180, 0, 0
0, 0.32501, 523, 180, 0, 0
0, 0.32601, 523, -180, 0, 0
0, 0.32601, 523, -180, 0, 0
