hour, t(sec), P1 (kW), Q1 (kvar), P2 (kW), Q2 (kvar), P3 (kW), Q3 (kvar),No Load Scheduling,t(sec),t(sec)
0,8.82337,-1886.43,-1038.28,-1906.9,-1166.89,-1785.26,-1120.38,5578.59,15,0
0,8.83137,-1879.47,-1031.18,-1900.11,-1160.79,-1777.51,-1113.92,5557.09,15.008,0.16
0,8.84589,-1874.52,-1026.75,-1894.3,-1155.97,-1772.47,-1108.55,5541.29,15.02252,0.4504
0,8.85003,-1879.62,-1031.17,-1898.41,-1160.08,-1777.35,-1111.97,5555.38,15.02666,0.5332
0,8.86199,-1878.17,-1029.05,-1897.14,-1158.89,-1775.17,-1110.47,5550.48,15.03862,0.7724
0,8.86507,-1877.76,-1027.81,-1896.88,-1158.64,-1773.99,-1109.85,5548.63,15.0417,0.834
0,8.87303,-1875.49,-1024.92,-1894.78,-1156.72,-1770.96,-1107.6,5541.23,15.04966,0.9932
0,8.88521,-1883.83,-1031.47,-1903.27,-1164.27,-1778.51,-1114.77,5565.61,15.06184,1.2368
0,8.88626,-1874.99,-1023.55,-1893.55,-1155.98,-1769.56,-1105.91,5538.1,15.06289,1.2578
0,8.93431,-1875.24,-1022.89,-1893.93,-1156.29,-1769.02,-1105.85,5538.19,15.11094,2.2188
0,8.93487,-1880.46,-1026.64,-1899.27,-1161.04,-1773.43,-1110.2,5553.16,15.1115,2.23
0,8.94903,-1874.02,-1020.07,-1893.06,-1155.43,-1766.27,-1104.31,5533.35,15.12566,2.5132
0,8.96266,-1875.65,-1020.64,-1894.82,-1156.99,-1767.12,-1105.48,5537.59,15.13929,2.7858
0,8.96303,-1883.13,-1026.43,-1902.46,-1163.75,-1773.84,-1111.91,5559.43,15.13966,2.7932
0,8.96388,-1872.44,-1016.05,-1891.96,-1154.35,-1762.4,-1102.18,5526.8,15.14051,2.8102
0,8.97193,-1885.51,-1026.81,-1905.16,-1166.09,-1774.68,-1113.53,5565.35,15.14856,2.9712
0,8.97237,-1881.36,-1022.3,-1901.21,-1162.5,-1769.83,-1109.66,5552.4,15.149,2.98
0,8.97893,-1878.06,-1018.48,-1898.06,-1159.67,-1765.75,-1106.47,5541.87,15.15556,3.1112
0,8.9797,-1871.72,-1012.75,-1890.82,-1153.61,-1759.25,-1099.79,5521.79,15.15633,3.1266
0,8.98964,-1884.26,-1023.04,-1903.49,-1164.88,-1771.01,-1110.68,5558.76,15.16627,3.3254
0,8.99829,-1885.17,-1023.02,-1904.56,-1165.79,-1771.18,-1111.26,5560.91,15.17492,3.4984
0,9.00506,-1881.87,-1020.06,-1900.42,-1162.44,-1767.81,-1107.39,5550.1,15.18169,3.6338
0,9.01125,-1875.67,-1014.46,-1893.29,-1156.51,-1761.43,-1100.81,5530.39,15.18788,3.7576
0,9.01381,-1874.78,-1012.8,-1892.54,-1155.82,-1759.77,-1099.76,5527.09,15.19044,3.8088
0,9.01417,-1877.04,-1013.91,-1894.92,-1157.92,-1761.23,-1101.48,5533.19,15.1908,3.816
0,9.01452,-1876.64,-1013.54,-1893.69,-1157.16,-1760.75,-1100.19,5531.08,15.19115,3.823
0,9.01677,-1879.27,-1015.82,-1895.39,-1159.08,-1763.24,-1101.49,5537.9,15.1934,3.868
0,9.01693,-1880.81,-1016.33,-1897.06,-1160.55,-1764,-1102.59,5541.87,15.19356,3.8712
0,9.01706,-1882.28,-1016.78,-1898.7,-1161.97,-1764.72,-1103.66,5545.7,15.19369,3.8738
0,9.02573,-1882.15,-1015.81,-1898.74,-1161.96,-1763.84,-1103.32,5544.73,15.20236,4.0472
0,9.0259,-1879.29,-1012.41,-1896.06,-1159.53,-1760.24,-1100.57,5535.59,15.20253,4.0506
0,9.01216,-1874.34,-1007.15,-1891.29,-1155.23,-1754.54,-1095.94,5520.17,15.18879,3.7758
0,9.02696,-1876.63,-1009.1,-1892.65,-1156.85,-1756.65,-1096.92,5525.93,15.20359,4.0718
0,9.02798,-1875.97,-1008.49,-1891.12,-1155.85,-1755.89,-1095.36,5522.98,15.20461,4.0922
0,9.02871,-1871.46,-1003.63,-1886.76,-1151.95,-1750.63,-1091.12,5508.85,15.20534,4.1068
0,9.03062,-1871.62,-1002.87,-1887.05,-1152.19,-1749.99,-1090.97,5508.66,15.20725,4.145
0,9.03195,-1871.63,-1002.03,-1887.22,-1152.31,-1749.24,-1090.75,5508.09,15.20858,4.1716
0,9.03569,-1878.96,-1007.67,-1894.71,-1158.94,-1755.81,-1097.02,5529.48,15.21232,4.2464
0,9.04141,-1870.57,-999.374,-1886.51,-1151.59,-1746.68,-1089.37,5503.76,15.21804,4.3608
0,9.04193,-1882.79,-1009.36,-1898.86,-1162.56,-1758.12,-1099.95,5539.77,15.21856,4.3712
0,8.99542,-1868.52,-996.664,-1883.74,-1149.47,-1743.76,-1086.33,5496.02,15.17205,3.441
0,9.05178,-1873.12,-999.838,-1888.42,-1153.65,-1747.54,-1090.08,5509.08,15.22841,4.5682
0,9.0571,-1871.42,-997.511,-1886.94,-1152.26,-1745.13,-1088.4,5503.49,15.23373,4.6746
0,9.05945,-1874.84,-999.658,-1890.48,-1155.39,-1747.76,-1091.15,5513.08,15.23608,4.7216
0,9.04517,-1878.72,-1002.25,-1894.52,-1158.95,-1750.88,-1094.36,5524.12,15.2218,4.436
0,9.06126,-1877.68,-1001.32,-1892.65,-1157.62,-1749.77,-1092.52,5520.1,15.23789,4.7578
0,9.06148,-1874.66,-998.612,-1888.76,-1154.53,-1746.65,-1088.86,5510.07,15.23811,4.7622
0,9.06363,-1879.02,-1001.56,-1893.17,-1158.49,-1750.16,-1092.36,5522.35,15.24026,4.8052
0,9.06544,-1875.93,-998.017,-1890.32,-1155.87,-1746.39,-1089.48,5512.64,15.24207,4.8414
0,9.06656,-1871.21,-992.971,-1885.77,-1151.78,-1740.92,-1085.07,5497.9,15.24319,4.8638
0,9.06729,-1877.11,-997.287,-1891.75,-1157.12,-1745.98,-1089.96,5514.84,15.24392,4.8784
0,9.06944,-1877.97,-997.224,-1892.8,-1157.99,-1746.12,-1090.54,5516.89,15.24607,4.9214
0,9.07012,-1876.55,-995.124,-1891.57,-1156.85,-1743.97,-1089.07,5512.09,15.24675,4.935
0,9.07017,-1873.97,-991.988,-1889.17,-1154.67,-1740.65,-1086.57,5503.79,15.2468,4.936
0,9.07082,-1875.59,-993.359,-1889.89,-1155.69,-1742.12,-1086.99,5507.6,15.24745,4.949
0,9.07222,-1875.3,-992.25,-1889.74,-1155.54,-1741.07,-1086.48,5506.11,15.24885,4.977
0,9.07238,-1876.38,-993.163,-1889.94,-1156.09,-1742.04,-1086.45,5508.36,15.24901,4.9802
0,9.07457,-1868.91,-985.688,-1882.65,-1149.57,-1733.82,-1079.61,5485.38,15.2512,5.024
0,9.07844,-1879.34,-994.056,-1893.19,-1158.93,-1743.45,-1088.57,5515.98,15.25507,5.1014
0,9.07891,-1876.81,-990.999,-1890.86,-1156.79,-1740.22,-1086.15,5507.89,15.25554,5.1108
0,9.0791,-1873.12,-987.699,-1886.33,-1153.11,-1736.44,-1081.92,5495.89,15.25573,5.1146
0,9.08015,-1866.42,-980.881,-1879.76,-1147.28,-1728.95,-1075.72,5475.13,15.25678,5.1356
0,9.08062,-1875.4,-987.958,-1888.86,-1155.34,-1737.14,-1083.39,5501.4,15.25725,5.145
0,9.08077,-1868.71,-981.198,-1882.36,-1149.52,-1729.73,-1077.27,5480.8,15.2574,5.148
0,9.0809,-1872.85,-983.98,-1886.6,-1153.28,-1733.07,-1080.63,5492.52,15.25753,5.1506
0,9.08092,-1875.01,-985.058,-1888.94,-1155.31,-1734.5,-1082.33,5498.45,15.25755,5.151
0,9.08619,-1870.63,-981.182,-1883.76,-1151.03,-1730.07,-1077.56,5484.46,15.26282,5.2564
0,9.06844,-1871.22,-981.635,-1883.42,-1151.14,-1730.49,-1077.03,5485.13,15.24507,4.9014
0,9.09582,-1876.84,-985.723,-1889.11,-1156.21,-1735.3,-1081.68,5501.25,15.27245,5.449
0,9.096,-1866.87,-976.089,-1879.4,-1147.5,-1724.65,-1072.73,5470.92,15.27263,5.4526
0,9.09716,-1872.81,-980.455,-1885.42,-1152.86,-1729.78,-1077.67,5488.01,15.27379,5.4758
0,9.09917,-1865.2,-972.908,-1878.05,-1146.24,-1721.48,-1070.8,5464.73,15.2758,5.516
0,9.09933,-1871.96,-978.026,-1884.95,-1152.34,-1727.46,-1076.52,5484.37,15.27596,5.5192
0,9.1001,-1873.1,-978.196,-1886.24,-1153.45,-1727.86,-1077.29,5487.2,15.27673,5.5346
0,9.08005,-1866.9,-972.683,-1879.2,-1147.56,-1721.57,-1070.86,5467.67,15.25668,5.1336
0,9.09987,-1871.75,-976.902,-1883.11,-1151.44,-1726.25,-1074.1,5481.11,15.2765,5.53
0,9.10105,-1870.17,-974.688,-1881.72,-1150.15,-1723.96,-1072.51,5475.85,15.27768,5.5536
0,9.10117,-1863.16,-967.641,-1874.9,-1144.07,-1716.21,-1066.11,5454.27,15.2778,5.556
0,9.1014,-1874.77,-977.022,-1886.61,-1154.43,-1727.01,-1076.07,5488.39,15.27803,5.5606
0,9.10565,-1874.7,-976.955,-1885.69,-1153.97,-1726.86,-1075.07,5487.25,15.28228,5.6456
0,9.10851,-1869.14,-971.217,-1880.32,-1149.16,-1720.59,-1069.96,5470.05,15.28514,5.7028
0,9.1106,-1865.02,-967.531,-1875.34,-1145.11,-1716.35,-1065.35,5456.71,15.28723,5.7446
0,9.1143,-1876.81,-977.054,-1887.19,-1155.64,-1727.3,-1075.43,5491.3,15.29093,5.8186
0,9.11487,-1876.13,-975.64,-1886.69,-1155.15,-1725.92,-1074.63,5488.74,15.2915,5.83
0,9.11514,-1869.42,-968.868,-1880.19,-1149.33,-1718.49,-1068.52,5468.1,15.29177,5.8354
0,9.11754,-1866.22,-965.204,-1877.16,-1146.61,-1714.55,-1065.47,5457.93,15.29417,5.8834
0,9.12619,-1874.78,-972.688,-1884.78,-1153.76,-1722.93,-1071.98,5482.49,15.30282,6.0564
0,9.12963,-1863.58,-961.984,-1873.8,-1143.98,-1711.05,-1061.93,5448.43,15.30626,6.1252
0,9.14453,-1867.32,-964.409,-1877.64,-1147.38,-1713.99,-1064.93,5458.95,15.32116,6.4232
0,9.14466,-1864.65,-961.25,-1875.2,-1145.14,-1710.63,-1062.43,5450.48,15.32129,6.4258
0,9.1448,-1874.35,-968.939,-1885.01,-1153.83,-1719.53,-1070.71,5478.89,15.32143,6.4286
0,9.15124,-1865.88,-960.657,-1876.77,-1146.46,-1710.38,-1063.08,5453.03,15.32787,6.5574
0,9.15223,-1862.34,-957.515,-1872.39,-1142.93,-1706.76,-1059.01,5441.49,15.32886,6.5772
0,9.15195,-1869.59,-963.025,-1879.72,-1149.43,-1713.19,-1065.1,5462.5,15.32858,6.5716
0,9.15252,-1873.74,-965.84,-1883.99,-1153.2,-1716.57,-1068.49,5474.3,15.32915,6.583
0,9.16561,-1873.8,-965.071,-1884.24,-1153.37,-1715.92,-1068.36,5473.96,15.34224,6.8448
0,9.17156,-1866.61,-958.694,-1876.21,-1146.61,-1708.64,-1061.07,5451.46,15.34819,6.9638
0,9.17142,-1868.08,-959.135,-1877.81,-1148.01,-1709.34,-1062.1,5455.23,15.34805,6.961
0,9.17965,-1864.21,-954.92,-1874.16,-1144.72,-1704.78,-1058.54,5443.15,15.35628,7.1256
0,9.18094,-1870,-959.133,-1880.02,-1149.93,-1709.75,-1063.31,5459.77,15.35757,7.1514
0,9.18265,-1871.56,-960.497,-1880.76,-1150.91,-1711.22,-1063.76,5463.54,15.35928,7.1856
0,9.18933,-1871.64,-959.73,-1880.98,-1151.09,-1710.56,-1063.6,5463.18,15.36596,7.3192
0,9.14395,-1864.01,-952.974,-1872.52,-1143.95,-1702.85,-1055.93,5439.38,15.32058,6.4116
0,9.18942,-1873.36,-960.348,-1881.97,-1152.31,-1711.39,-1063.88,5466.72,15.36605,7.321
0,9.17162,-1859.7,-948.306,-1867.51,-1139.84,-1697.69,-1050.94,5424.9,15.34825,6.965
0,9.19009,-1860.04,-947.754,-1867.98,-1140.25,-1697.27,-1050.98,5425.29,15.36672,7.3344
0,9.19046,-1860.35,-947.989,-1867.43,-1140.11,-1697.47,-1050.29,5425.25,15.36709,7.3418
0,9.20107,-1869.32,-955.824,-1875.46,-1147.61,-1706.26,-1057.13,5451.04,15.3777,7.554
0,9.20568,-1870.76,-956.265,-1877.05,-1148.99,-1706.97,-1058.17,5454.78,15.38231,7.6462
0,9.20756,-1864.92,-950.323,-1871.45,-1143.96,-1700.46,-1052.89,5436.83,15.38419,7.6838
0,9.21381,-1859.14,-944.407,-1865.86,-1138.98,-1693.96,-1047.61,5418.96,15.39044,7.8088
0,9.22629,-1863.52,-948.17,-1869.29,-1142.42,-1698.15,-1050.39,5430.96,15.40292,8.0584
0,9.22657,-1872.42,-955.173,-1878.33,-1150.39,-1706.28,-1057.99,5457.03,15.4032,8.064
0,9.22827,-1870.39,-952.577,-1876.49,-1148.71,-1703.55,-1056.02,5450.43,15.4049,8.098
0,9.23131,-1870.7,-952.8,-1875.92,-1148.57,-1703.73,-1055.31,5450.35,15.40794,8.1588
0,9.23231,-1866.88,-948.624,-1872.29,-1145.32,-1699.21,-1051.76,5438.38,15.40894,8.1788
0,9.25129,-1858.2,-940.15,-1863.81,-1137.79,-1689.81,-1043.93,5411.82,15.42792,8.5584
0,9.25168,-1859.47,-940.42,-1865.21,-1139.01,-1690.32,-1044.78,5415,15.42831,8.5662
0,9.25354,-1871.5,-950.143,-1877.35,-1149.72,-1701.55,-1055.1,5450.4,15.43017,8.6034
0,9.25691,-1869.82,-947.864,-1875.87,-1148.35,-1699.18,-1053.45,5444.87,15.43354,8.6708
0,9.25726,-1860.62,-939.737,-1865.84,-1139.84,-1689.9,-1044.41,5416.36,15.43389,8.6778
0,9.25741,-1864.24,-942.063,-1869.56,-1143.13,-1692.73,-1047.31,5426.53,15.43404,8.6808
0,9.25752,-1864.1,-941.125,-1869.61,-1143.12,-1691.89,-1047,5425.6,15.43415,8.683
0,9.26445,-1868.93,-945.311,-1873.53,-1146.97,-1696.55,-1050.23,5439.01,15.44108,8.8216
0,9.26592,-1869.76,-945.224,-1874.52,-1147.82,-1696.66,-1050.75,5440.94,15.44255,8.851
0,9.26691,-1864.27,-939.6,-1869.27,-1143.1,-1690.5,-1045.79,5424.04,15.44354,8.8708
0,9.26872,-1859.87,-934.903,-1865.05,-1139.34,-1685.38,-1041.72,5410.3,15.44535,8.907
0,9.28318,-1864.86,-939.204,-1869.09,-1143.31,-1690.18,-1045.03,5424.13,15.45981,9.1962
0,9.28962,-1855.71,-930.379,-1860.2,-1135.39,-1680.37,-1036.88,5396.28,15.46625,9.325
0,9.29041,-1856.9,-930.579,-1861.51,-1136.54,-1680.8,-1037.66,5399.21,15.46704,9.3408
0,23.82432,-1841.4,-917.004,-1845.24,-1122.55,-1665.28,-1023.21,5351.92,30.00095,300.019
0,23.83285,-1853.25,-935.593,-1855.29,-1131.8,-1684.32,-1035.57,5392.86,30.00948,300.1896
0,23.84764,-1844.93,-929.126,-1864.74,-1132.63,-1678.56,-1048.14,5388.23,30.02427,300.4854
0,23.85003,-1852.36,-936.474,-1889.99,-1147.42,-1688.44,-1074.64,5430.79,30.02666,300.5332
0,23.86216,-1859.93,-959.933,-1894.36,-1151.89,-1710.86,-1085.83,5465.15,30.03879,300.7758
0,23.86278,-1852.16,-969.959,-1883.35,-1142.78,-1718.04,-1083.46,5453.55,30.03941,300.7882
0,23.87208,-1853.39,-988.103,-1881.26,-1141.64,-1734.33,-1089.09,5468.98,30.04871,300.9742
0,23.88212,-1858.6,-1009.97,-1883.26,-1144.08,-1754.76,-1098.45,5496.62,30.05875,301.175
0,23.88539,-1867.9,-1019.09,-1910.64,-1160.71,-1766.57,-1126.98,5545.11,30.06202,301.2404
0,23.88911,-1869.68,-1038.23,-1909.39,-1160.16,-1783.89,-1133.65,5562.96,30.06574,301.3148
0,23.93688,-1868.08,-1054.49,-1904.7,-1156.63,-1797.9,-1137.32,5570.68,30.11351,302.2702
0,23.93756,-1878.02,-1072.4,-1913.13,-1164.5,-1815.77,-1148.89,5606.92,30.11419,302.2838
0,23.94276,-1875.82,-1079.35,-1909.4,-1161.49,-1821.44,-1149.54,5606.66,30.11939,302.3878
0,23.94878,-1871.08,-1083.83,-1903.29,-1156.29,-1824.41,-1147.99,5598.78,30.12541,302.5082
0,23.95671,-1879.33,-1099.68,-1910.04,-1162.72,-1840.06,-1157.82,5629.43,30.13334,302.6668
0,23.96295,-1878.47,-1107.22,-1907.91,-1161.05,-1846.55,-1159.65,5632.93,30.13958,302.7916
0,23.96464,-1881.54,-1129.46,-1904.22,-1158.22,-1867.96,-1163.49,5653.72,30.14127,302.8254
0,23.9702,-1884.93,-1140.92,-1906.37,-1160.41,-1878.76,-1169.24,5670.06,30.14683,302.9366
0,23.97216,-1885.63,-1149.99,-1905.79,-1160.18,-1886.87,-1172.55,5678.29,30.14879,302.9758
0,23.97225,-1891,-1155.43,-1920.39,-1169.21,-1893.74,-1187.77,5705.13,30.14888,302.9776
0,23.9754,-1882.57,-1156.48,-1910.64,-1160.74,-1892.9,-1182.91,5686.11,30.15203,303.0406
0,23.97973,-1888.66,-1170.24,-1915.52,-1165.41,-1906.26,-1191.08,5710.44,30.15636,303.1272
0,23.98271,-1885.17,-1167.91,-1921.21,-1166.49,-1904.4,-1198.4,5710.78,30.15934,303.1868
0,23.99417,-1896.74,-1186.53,-1931.73,-1176.18,-1923.19,-1211.64,5751.66,30.1708,303.416
0,23.99931,-1887.13,-1178.83,-1931.29,-1171.69,-1915.38,-1213.49,5733.8,30.17594,303.5188
0,24.01078,-1890.56,-1182.62,-1944.07,-1179.11,-1920.33,-1227.2,5754.96,30.18741,303.7482
0,24.01121,-1900.47,-1216.51,-1950.7,-1185.78,-1952.18,-1244.62,5803.35,30.18784,303.7568
0,24.01209,-1897.66,-1234.3,-1941.32,-1177.66,-1968.52,-1243.75,5807.5,30.18872,303.7744
0,24.01543,-1896.24,-1241.39,-1938.9,-1175.64,-1974.5,-1245.41,5809.64,30.19206,303.8412
0,24.01547,-1905.13,-1250.73,-1981.83,-1194.88,-1991.81,-1289.18,5878.77,30.1921,303.842
0,24.01613,-1897.99,-1246.07,-1993.55,-1197.22,-1988.02,-1304.36,5879.56,30.19276,303.8552
0,24.01686,-1898.73,-1263.53,-1992.26,-1196.41,-2003.59,-1310.91,5894.58,30.19349,303.8698
0,24.01738,-1906.48,-1278.72,-1999.14,-1202.82,-2018.49,-1320.96,5924.11,30.19401,303.8802
0,24.01756,-1909.14,-1289.35,-2000.84,-1204.58,-2028.36,-1326.31,5938.34,30.19419,303.8838
0,24.01878,-1911.89,-1299.3,-2002.03,-1206.52,-2037.28,-1330.9,5951.2,30.19541,303.9082
0,24.02961,-1899.28,-1297.16,-1988.78,-1194.08,-2033.27,-1323.05,5921.33,30.20624,304.1248
0,24.03038,-1914.73,-1331.84,-1998.26,-1202.82,-2068.21,-1339.57,5981.2,30.20701,304.1402
0,24.03474,-1904.75,-1325.74,-2017.02,-1207.18,-2063.52,-1363.6,5985.29,30.21137,304.2274
0,24.0354,-1912.34,-1347.37,-2021.32,-1213.07,-2083.1,-1374.5,6016.76,30.21203,304.2406
0,24.0381,-1921.63,-1370.03,-2027.24,-1220.66,-2103.76,-1386.7,6052.63,30.21473,304.2946
0,24.03884,-1922.42,-1378.42,-2026.77,-1220.87,-2111.01,-1389.9,6060.2,30.21547,304.3094
0,24.04862,-1918.06,-1390.69,-2020.2,-1215.6,-2120.74,-1391.47,6059,30.22525,304.505
0,24.05246,-1921.85,-1447.48,-2015.34,-1215.61,-2169.4,-1412.35,6106.59,30.22909,304.5818
0,24.05258,-1930.47,-1506.75,-2015.56,-1220.83,-2220.64,-1437.29,6166.67,30.22921,304.5842
0,24.05389,-1925.49,-1506.46,-2047.04,-1227.28,-2228.02,-1471.94,6200.55,30.23052,304.6104
0,24.05396,-1924.83,-1506.04,-2055.22,-1231.26,-2227.97,-1481.37,6208.02,30.23059,304.6118
0,24.05586,-1928.36,-1516.13,-2057.53,-1234.23,-2237.06,-1486.83,6222.95,30.23249,304.6498
0,24.05728,-1934.17,-1535.19,-2060.81,-1239.06,-2253.94,-1496.6,6248.92,30.23391,304.6782
0,24.0614,-1933.05,-1534.48,-2077.53,-1247.33,-2253.94,-1515.82,6264.52,30.23803,304.7606
0,24.06229,-1935.17,-1539.77,-2151.18,-1279.93,-2268.13,-1596.7,6354.48,30.23892,304.7784
0,24.06263,-1932.96,-1538.28,-2156.98,-1282.07,-2266.77,-1603.97,6356.71,30.23926,304.7852
0,24.06462,-1927.03,-1541.1,-2151.06,-1276.18,-2268.4,-1602.43,6346.49,30.24125,304.825
0,24.06575,-1938.63,-1564.69,-2159.58,-1286.44,-2290,-1616.68,6388.21,30.24238,304.8476
0,24.0661,-1928.68,-1572.02,-2149.26,-1276.39,-2294.93,-1615,6372.87,30.24273,304.8546
0,24.06654,-1934.13,-1590.76,-2152.55,-1281,-2311.54,-1624.79,6398.22,30.24317,304.8634
0,24.0701,-1935.28,-1613.32,-2151.38,-1281.32,-2330.8,-1634.21,6417.46,30.24673,304.9346
0,24.07024,-1936.12,-1628.28,-2150.7,-1281.64,-2343.55,-1640.52,6430.37,30.24687,304.9374
0,24.07842,-1940.72,-1645.89,-2153.37,-1285.62,-2359,-1649.64,6453.09,30.25505,305.101
0,24.09458,-1942.95,-1668.6,-2153.34,-1287.2,-2378.41,-1659.8,6474.7,30.27121,305.4242
0,24.10439,-1937.92,-1678.69,-2147.32,-1281.85,-2386.25,-1661.31,6471.49,30.28102,305.6204
0,24.11642,-1936.78,-1691.48,-2144.9,-1280.4,-2396.82,-1665.87,6478.5,30.29305,305.861
0,24.11682,-1946.37,-1705.47,-2153.04,-1289.67,-2409.78,-1676.23,6509.19,30.29345,305.869
0,24.12442,-1940.77,-1714.67,-2146.67,-1283.96,-2416.71,-1677.3,6504.15,30.30105,306.021
0,24.12472,-1950.78,-1728.76,-2155.19,-1293.65,-2429.79,-1687.9,6535.76,30.30135,306.027
0,24.13038,-1948.74,-1727.58,-2161.76,-1296.15,-2428.86,-1696.01,6539.36,30.30701,306.1402
0,24.13841,-1939.93,-1721.76,-2169.76,-1296.07,-2423.46,-1707.62,6533.15,30.31504,306.3008
0,24.14395,-1945.37,-1739.11,-2173.58,-1301.21,-2438.67,-1717.45,6557.62,30.32058,306.4116
0,24.14506,-1949.24,-1742.64,-2192.78,-1313.36,-2442.72,-1738.57,6584.74,30.32169,306.4338
0,24.14567,-1946.75,-1747.38,-2190.18,-1310.93,-2446.39,-1739.62,6583.32,30.3223,306.446
0,24.14632,-1950.54,-1750.93,-2209.13,-1322.97,-2450.4,-1760.54,6610.07,30.32295,306.459
0,24.14843,-1945.33,-1766.87,-2203.25,-1317.76,-2463.19,-1765.32,6611.77,30.32506,306.5012
0,24.1521,-1953.3,-1773.11,-2217.87,-1329.65,-2469.58,-1780.14,6640.75,30.32873,306.5746
0,24.1685,-1953.95,-1786.69,-2217.63,-1330.26,-2481.02,-1786.46,6652.6,30.34513,306.9026
0,24.16908,-1956.63,-1795.33,-2219.57,-1332.88,-2488.54,-1791.44,6664.74,30.34571,306.9142
0,24.17529,-1952.55,-1805.22,-2215.23,-1328.94,-2496.31,-1794.18,6664.09,30.35192,307.0384
0,24.18448,-1950.65,-1804.32,-2221.24,-1331.22,-2495.61,-1801.72,6667.5,30.36111,307.2222
0,24.19416,-1948.55,-1803.19,-2227.05,-1333.32,-2494.66,-1809.05,6670.26,30.37079,307.4158
0,24.20698,-1963.71,-1819.94,-2237.67,-1346.74,-2510.44,-1820.21,6711.82,30.38361,307.6722
0,24.20905,-1964.31,-1833.2,-2237.43,-1347.37,-2521.56,-1826.41,6723.3,30.38568,307.7136
0,24.20908,-1963,-1844.92,-2235.55,-1346.17,-2531.17,-1831.17,6729.72,30.38571,307.7142
0,24.21076,-1961.95,-1856.75,-2233.9,-1345.2,-2540.91,-1836.08,6736.76,30.38739,307.7478
0,24.21388,-1956.11,-1864.97,-2228.11,-1339.57,-2547.09,-1837.4,6731.31,30.39051,307.8102
0,24.21799,-1953.91,-1864.36,-2241.44,-1345.63,-2546.86,-1853.58,6742.21,30.39462,307.8924
0,24.22059,-1957.25,-1885.5,-2243.44,-1349.11,-2564.83,-1864.71,6765.52,30.39722,307.9444
0,24.22268,-1962.46,-1889.74,-2256.01,-1358.45,-2569.3,-1877.87,6787.77,30.39931,307.9862
0,24.22422,-1961.25,-1889.4,-2262.5,-1361.34,-2569.14,-1885.81,6792.89,30.40085,308.017
0,24.22483,-1958.77,-1899.85,-2261.06,-1359.47,-2577.85,-1890.99,6797.68,30.40146,308.0292
0,24.22624,-1960.68,-1919.33,-2264.29,-1362.29,-2594.85,-1903.28,6819.82,30.40287,308.0574
0,24.22758,-1955.62,-1939.41,-2261.07,-1358.34,-2611.53,-1912.92,6828.22,30.40421,308.0842
0,24.23005,-1950.58,-1947.73,-2257.05,-1353.91,-2618.04,-1915.74,6825.67,30.40668,308.1336
0,24.23451,-1957.44,-1958.83,-2264.37,-1361.29,-2628.35,-1925.37,6850.16,30.41114,308.2228
0,24.21099,-1958.23,-1959.96,-2272.87,-1366.21,-2629.71,-1935.08,6860.81,30.38762,307.7524
0,24.23739,-1953.22,-1962.17,-2268.5,-1361.53,-2630.99,-1934.38,6852.71,30.41402,308.2804
0,24.23657,-1955,-1969.61,-2270.77,-1363.73,-2637.56,-1939.63,6863.33,30.4132,308.264
0,24.2441,-1951.45,-1973.11,-2267.84,-1360.54,-2640.11,-1940.32,6859.4,30.42073,308.4146
0,24.2451,-1955.27,-1987.37,-2272.56,-1365.11,-2652.78,-1950.5,6880.61,30.42173,308.4346
