hour, t(sec), S1 (kVA), Ang1, S2 (kVA), Ang2, S3 (kVA), Ang3, S4 (kVA), Ang4
0, 1.00000, 2046.02, 19.037, 2046.02, 19.037, 2046.02, 19.037, 0, 0
0, 0.10000, 2045.41, 19.0279, 2045.41, 19.0279, 2045.41, 19.0279, 0, 0
0, 0.10100, 2044.96, 19.0229, 2044.96, 19.0229, 2044.96, 19.0229, 0, 0
0, 0.10100, 2044.96, 19.0229, 2044.96, 19.0229, 2044.96, 19.0229, 0, 0
0, 0.10200, 2045.04, 19.0252, 2045.04, 19.0252, 2045.04, 19.0252, 0, 0
0, 0.10200, 2045.04, 19.0252, 2045.04, 19.0252, 2045.04, 19.0252, 0, 0
0, 0.10300, 2045.05, 19.0255, 2045.05, 19.0255, 2045.05, 19.0255, 0, 0
0, 0.10300, 2045.05, 19.0255, 2045.05, 19.0255, 2045.05, 19.0255, 0, 0
0, 0.10400, 2045.05, 19.0256, 2045.05, 19.0256, 2045.05, 19.0256, 0, 0
0, 0.10400, 2045.05, 19.0256, 2045.05, 19.0256, 2045.05, 19.0256, 0, 0
0, 0.10500, 2045.05, 19.0256, 2045.05, 19.0256, 2045.05, 19.0256, 0, 0
0, 0.10500, 2045.05, 19.0256, 2045.05, 19.0256, 2045.05, 19.0256, 0, 0
0, 0.10600, 2045.05, 19.0256, 2045.05, 19.0256, 2045.05, 19.0256, 0, 0
0, 0.10600, 2045.05, 19.0256, 2045.05, 19.0256, 2045.05, 19.0256, 0, 0
0, 0.10700, 2045.05, 19.0256, 2045.05, 19.0256, 2045.05, 19.0256, 0, 0
0, 0.10700, 2045.05, 19.0256, 2045.05, 19.0256, 2045.05, 19.0256, 0, 0
0, 0.10800, 2045.05, 19.0256, 2045.05, 19.0256, 2045.05, 19.0256, 0, 0
0, 0.10800, 2045.05, 19.0256, 2045.05, 19.0256, 2045.05, 19.0256, 0, 0
0, 0.10900, 2045.05, 19.0256, 2045.05, 19.0256, 2045.05, 19.0256, 0, 0
0, 0.10900, 2045.05, 19.0256, 2045.05, 19.0256, 2045.05, 19.0256, 0, 0
0, 0.11000, 2045.05, 19.0256, 2045.05, 19.0256, 2045.05, 19.0256, 0, 0
0, 0.11000, 2045.05, 19.0256, 2045.05, 19.0256, 2045.05, 19.0256, 0, 0
0, 0.11100, 2045.05, 19.0256, 2045.05, 19.0256, 2045.05, 19.0256, 0, 0
0, 0.11100, 2045.05, 19.0256, 2045.05, 19.0256, 2045.05, 19.0256, 0, 0
0, 0.11200, 2045.05, 19.0256, 2045.05, 19.0256, 2045.05, 19.0256, 0, 0
0, 0.11200, 2045.05, 19.0256, 2045.05, 19.0256, 2045.05, 19.0256, 0, 0
0, 0.11300, 2045.05, 19.0256, 2045.05, 19.0256, 2045.05, 19.0256, 0, 0
0, 0.11300, 2045.05, 19.0256, 2045.05, 19.0256, 2045.05, 19.0256, 0, 0
0, 0.11400, 2045.05, 19.0256, 2045.05, 19.0256, 2045.05, 19.0256, 0, 0
0, 0.11400, 2045.05, 19.0256, 2045.05, 19.0256, 2045.05, 19.0256, 0, 0
0, 0.11500, 2045.05, 19.0256, 2045.05, 19.0256, 2045.05, 19.0256, 0, 0
0, 0.11500, 2045.05, 19.0256, 2045.05, 19.0256, 2045.05, 19.0256, 0, 0
0, 0.11600, 2045.05, 19.0256, 2045.05, 19.0256, 2045.05, 19.0256, 0, 0
0, 0.11600, 2045.05, 19.0256, 2045.05, 19.0256, 2045.05, 19.0256, 0, 0
0, 0.11700, 2045.05, 19.0256, 2045.05, 19.0256, 2045.05, 19.0256, 0, 0
0, 0.11700, 2045.05, 19.0256, 2045.05, 19.0256, 2045.05, 19.0256, 0, 0
0, 0.11800, 2045.05, 19.0256, 2045.05, 19.0256, 2045.05, 19.0256, 0, 0
0, 0.11800, 2045.05, 19.0256, 2045.05, 19.0256, 2045.05, 19.0256, 0, 0
0, 0.11900, 2045.05, 19.0256, 2045.05, 19.0256, 2045.05, 19.0256, 0, 0
0, 0.11900, 2045.05, 19.0256, 2045.05, 19.0256, 2045.05, 19.0256, 0, 0
0, 0.12000, 2045.05, 19.0256, 2045.05, 19.0256, 2045.05, 19.0256, 0, 0
0, 0.12000, 2045.05, 19.0256, 2045.05, 19.0256, 2045.05, 19.0256, 0, 0
0, 0.12100, 2045.05, 19.0256, 2045.05, 19.0256, 2045.05, 19.0256, 0, 0
0, 0.12100, 2045.05, 19.0256, 2045.05, 19.0256, 2045.05, 19.0256, 0, 0
0, 0.12200, 2045.05, 19.0256, 2045.05, 19.0256, 2045.05, 19.0256, 0, 0
0, 0.12200, 2045.05, 19.0256, 2045.05, 19.0256, 2045.05, 19.0256, 0, 0
0, 0.12300, 2045.05, 19.0256, 2045.05, 19.0256, 2045.05, 19.0256, 0, 0
0, 0.12300, 2045.05, 19.0256, 2045.05, 19.0256, 2045.05, 19.0256, 0, 0
0, 0.12400, 2045.05, 19.0256, 2045.05, 19.0256, 2045.05, 19.0256, 0, 0
0, 0.12400, 2045.05, 19.0256, 2045.05, 19.0256, 2045.05, 19.0256, 0, 0
0, 0.12500, 2045.05, 19.0256, 2045.05, 19.0256, 2045.05, 19.0256, 0, 0
0, 0.12500, 2045.05, 19.0256, 2045.05, 19.0256, 2045.05, 19.0256, 0, 0
0, 0.12600, 2045.05, 19.0256, 2045.05, 19.0256, 2045.05, 19.0256, 0, 0
0, 0.12600, 2045.05, 19.0256, 2045.05, 19.0256, 2045.05, 19.0256, 0, 0
0, 0.12700, 2045.05, 19.0256, 2045.05, 19.0256, 2045.05, 19.0256, 0, 0
0, 0.12700, 2045.05, 19.0256, 2045.05, 19.0256, 2045.05, 19.0256, 0, 0
0, 0.12800, 2045.05, 19.0256, 2045.05, 19.0256, 2045.05, 19.0256, 0, 0
0, 0.12800, 2045.05, 19.0256, 2045.05, 19.0256, 2045.05, 19.0256, 0, 0
0, 0.12900, 2045.05, 19.0256, 2045.05, 19.0256, 2045.05, 19.0256, 0, 0
0, 0.12900, 2045.05, 19.0256, 2045.05, 19.0256, 2045.05, 19.0256, 0, 0
0, 0.13000, 2045.05, 19.0256, 2045.05, 19.0256, 2045.05, 19.0256, 0, 0
0, 0.13000, 2045.05, 19.0256, 2045.05, 19.0256, 2045.05, 19.0256, 0, 0
0, 0.13100, 2045.05, 19.0256, 2045.05, 19.0256, 2045.05, 19.0256, 0, 0
0, 0.13100, 2045.05, 19.0256, 2045.05, 19.0256, 2045.05, 19.0256, 0, 0
0, 0.13200, 2045.05, 19.0256, 2045.05, 19.0256, 2045.05, 19.0256, 0, 0
0, 0.13200, 2045.05, 19.0256, 2045.05, 19.0256, 2045.05, 19.0256, 0, 0
0, 0.13300, 2045.05, 19.0256, 2045.05, 19.0256, 2045.05, 19.0256, 0, 0
0, 0.13300, 2045.05, 19.0256, 2045.05, 19.0256, 2045.05, 19.0256, 0, 0
0, 0.13400, 2045.05, 19.0256, 2045.05, 19.0256, 2045.05, 19.0256, 0, 0
0, 0.13400, 2045.05, 19.0256, 2045.05, 19.0256, 2045.05, 19.0256, 0, 0
0, 0.13500, 2045.05, 19.0256, 2045.05, 19.0256, 2045.05, 19.0256, 0, 0
0, 0.13500, 2045.05, 19.0256, 2045.05, 19.0256, 2045.05, 19.0256, 0, 0
0, 0.13600, 2045.05, 19.0256, 2045.05, 19.0256, 2045.05, 19.0256, 0, 0
0, 0.13600, 2045.05, 19.0256, 2045.05, 19.0256, 2045.05, 19.0256, 0, 0
0, 0.13700, 2045.05, 19.0256, 2045.05, 19.0256, 2045.05, 19.0256, 0, 0
0, 0.13700, 2045.05, 19.0256, 2045.05, 19.0256, 2045.05, 19.0256, 0, 0
0, 0.13800, 2045.05, 19.0256, 2045.05, 19.0256, 2045.05, 19.0256, 0, 0
0, 0.13800, 2045.05, 19.0256, 2045.05, 19.0256, 2045.05, 19.0256, 0, 0
0, 0.13900, 2045.05, 19.0256, 2045.05, 19.0256, 2045.05, 19.0256, 0, 0
0, 0.13900, 2045.05, 19.0256, 2045.05, 19.0256, 2045.05, 19.0256, 0, 0
0, 0.14000, 2045.05, 19.0256, 2045.05, 19.0256, 2045.05, 19.0256, 0, 0
0, 0.14000, 2045.05, 19.0256, 2045.05, 19.0256, 2045.05, 19.0256, 0, 0
0, 0.14100, 2045.05, 19.0256, 2045.05, 19.0256, 2045.05, 19.0256, 0, 0
0, 0.14100, 2045.05, 19.0256, 2045.05, 19.0256, 2045.05, 19.0256, 0, 0
0, 0.14200, 2045.05, 19.0256, 2045.05, 19.0256, 2045.05, 19.0256, 0, 0
0, 0.14200, 2045.05, 19.0256, 2045.05, 19.0256, 2045.05, 19.0256, 0, 0
0, 0.14300, 2045.05, 19.0256, 2045.05, 19.0256, 2045.05, 19.0256, 0, 0
0, 0.14300, 2045.05, 19.0256, 2045.05, 19.0256, 2045.05, 19.0256, 0, 0
0, 0.14400, 2045.05, 19.0256, 2045.05, 19.0256, 2045.05, 19.0256, 0, 0
0, 0.14400, 2045.05, 19.0256, 2045.05, 19.0256, 2045.05, 19.0256, 0, 0
0, 0.14500, 2045.05, 19.0256, 2045.05, 19.0256, 2045.05, 19.0256, 0, 0
0, 0.14500, 2045.05, 19.0256, 2045.05, 19.0256, 2045.05, 19.0256, 0, 0
0, 0.14600, 2045.05, 19.0256, 2045.05, 19.0256, 2045.05, 19.0256, 0, 0
0, 0.14600, 2045.05, 19.0256, 2045.05, 19.0256, 2045.05, 19.0256, 0, 0
0, 0.14700, 2045.05, 19.0256, 2045.05, 19.0256, 2045.05, 19.0256, 0, 0
0, 0.14700, 2045.05, 19.0256, 2045.05, 19.0256, 2045.05, 19.0256, 0, 0
0, 0.14800, 2045.05, 19.0256, 2045.05, 19.0256, 2045.05, 19.0256, 0, 0
0, 0.14800, 2045.05, 19.0256, 2045.05, 19.0256, 2045.05, 19.0256, 0, 0
0, 0.14900, 2045.05, 19.0256, 2045.05, 19.0256, 2045.05, 19.0256, 0, 0
0, 0.14900, 2045.05, 19.0256, 2045.05, 19.0256, 2045.05, 19.0256, 0, 0
0, 0.15000, 2045.05, 19.0256, 2045.05, 19.0256, 2045.05, 19.0256, 0, 0
0, 0.15000, 2045.05, 19.0256, 2045.05, 19.0256, 2045.05, 19.0256, 0, 0
0, 0.15100, 2045.05, 19.0256, 2045.05, 19.0256, 2045.05, 19.0256, 0, 0
0, 0.15100, 2045.05, 19.0256, 2045.05, 19.0256, 2045.05, 19.0256, 0, 0
0, 0.15200, 2045.05, 19.0256, 2045.05, 19.0256, 2045.05, 19.0256, 0, 0
0, 0.15200, 2045.05, 19.0256, 2045.05, 19.0256, 2045.05, 19.0256, 0, 0
0, 0.15300, 2045.05, 19.0256, 2045.05, 19.0256, 2045.05, 19.0256, 0, 0
0, 0.15300, 2045.05, 19.0256, 2045.05, 19.0256, 2045.05, 19.0256, 0, 0
0, 0.15400, 2045.05, 19.0256, 2045.05, 19.0256, 2045.05, 19.0256, 0, 0
0, 0.15400, 2045.05, 19.0256, 2045.05, 19.0256, 2045.05, 19.0256, 0, 0
0, 0.15500, 2045.05, 19.0256, 2045.05, 19.0256, 2045.05, 19.0256, 0, 0
0, 0.15500, 2045.05, 19.0256, 2045.05, 19.0256, 2045.05, 19.0256, 0, 0
0, 0.15600, 2045.05, 19.0256, 2045.05, 19.0256, 2045.05, 19.0256, 0, 0
0, 0.15600, 2045.05, 19.0256, 2045.05, 19.0256, 2045.05, 19.0256, 0, 0
0, 0.15700, 2045.05, 19.0256, 2045.05, 19.0256, 2045.05, 19.0256, 0, 0
0, 0.15700, 2045.05, 19.0256, 2045.05, 19.0256, 2045.05, 19.0256, 0, 0
0, 0.15800, 2045.05, 19.0256, 2045.05, 19.0256, 2045.05, 19.0256, 0, 0
0, 0.15800, 2045.05, 19.0256, 2045.05, 19.0256, 2045.05, 19.0256, 0, 0
0, 0.15900, 2045.05, 19.0256, 2045.05, 19.0256, 2045.05, 19.0256, 0, 0
0, 0.15900, 2045.05, 19.0256, 2045.05, 19.0256, 2045.05, 19.0256, 0, 0
0, 0.16000, 2045.05, 19.0256, 2045.05, 19.0256, 2045.05, 19.0256, 0, 0
0, 0.16000, 2045.05, 19.0256, 2045.05, 19.0256, 2045.05, 19.0256, 0, 0
0, 0.16100, 2045.05, 19.0256, 2045.05, 19.0256, 2045.05, 19.0256, 0, 0
0, 0.16100, 2045.05, 19.0256, 2045.05, 19.0256, 2045.05, 19.0256, 0, 0
0, 0.16200, 2045.05, 19.0256, 2045.05, 19.0256, 2045.05, 19.0256, 0, 0
0, 0.16200, 2045.05, 19.0256, 2045.05, 19.0256, 2045.05, 19.0256, 0, 0
0, 0.16300, 2045.05, 19.0256, 2045.05, 19.0256, 2045.05, 19.0256, 0, 0
0, 0.16300, 2045.05, 19.0256, 2045.05, 19.0256, 2045.05, 19.0256, 0, 0
0, 0.16400, 2045.05, 19.0256, 2045.05, 19.0256, 2045.05, 19.0256, 0, 0
0, 0.16400, 2045.05, 19.0256, 2045.05, 19.0256, 2045.05, 19.0256, 0, 0
0, 0.16500, 2045.05, 19.0256, 2045.05, 19.0256, 2045.05, 19.0256, 0, 0
0, 0.16500, 2045.05, 19.0256, 2045.05, 19.0256, 2045.05, 19.0256, 0, 0
0, 0.16600, 2045.05, 19.0256, 2045.05, 19.0256, 2045.05, 19.0256, 0, 0
0, 0.16600, 2045.05, 19.0256, 2045.05, 19.0256, 2045.05, 19.0256, 0, 0
0, 0.16700, 2045.05, 19.0256, 2045.05, 19.0256, 2045.05, 19.0256, 0, 0
0, 0.16700, 2045.05, 19.0256, 2045.05, 19.0256, 2045.05, 19.0256, 0, 0
0, 0.16800, 2045.05, 19.0256, 2045.05, 19.0256, 2045.05, 19.0256, 0, 0
0, 0.16800, 2045.05, 19.0256, 2045.05, 19.0256, 2045.05, 19.0256, 0, 0
0, 0.16900, 2045.05, 19.0256, 2045.05, 19.0256, 2045.05, 19.0256, 0, 0
0, 0.16900, 2045.05, 19.0256, 2045.05, 19.0256, 2045.05, 19.0256, 0, 0
0, 0.17000, 2045.05, 19.0256, 2045.05, 19.0256, 2045.05, 19.0256, 0, 0
0, 0.17000, 2045.05, 19.0256, 2045.05, 19.0256, 2045.05, 19.0256, 0, 0
0, 0.17100, 2045.05, 19.0256, 2045.05, 19.0256, 2045.05, 19.0256, 0, 0
0, 0.17100, 2045.05, 19.0256, 2045.05, 19.0256, 2045.05, 19.0256, 0, 0
0, 0.17200, 2045.05, 19.0256, 2045.05, 19.0256, 2045.05, 19.0256, 0, 0
0, 0.17200, 2045.05, 19.0256, 2045.05, 19.0256, 2045.05, 19.0256, 0, 0
0, 0.17300, 2045.05, 19.0256, 2045.05, 19.0256, 2045.05, 19.0256, 0, 0
0, 0.17300, 2045.05, 19.0256, 2045.05, 19.0256, 2045.05, 19.0256, 0, 0
0, 0.17400, 2045.05, 19.0256, 2045.05, 19.0256, 2045.05, 19.0256, 0, 0
0, 0.17400, 2045.05, 19.0256, 2045.05, 19.0256, 2045.05, 19.0256, 0, 0
0, 0.17500, 2045.05, 19.0256, 2045.05, 19.0256, 2045.05, 19.0256, 0, 0
0, 0.17500, 2045.05, 19.0256, 2045.05, 19.0256, 2045.05, 19.0256, 0, 0
0, 0.17600, 2045.05, 19.0256, 2045.05, 19.0256, 2045.05, 19.0256, 0, 0
0, 0.17600, 2045.05, 19.0256, 2045.05, 19.0256, 2045.05, 19.0256, 0, 0
0, 0.17700, 2045.05, 19.0256, 2045.05, 19.0256, 2045.05, 19.0256, 0, 0
0, 0.17700, 2045.05, 19.0256, 2045.05, 19.0256, 2045.05, 19.0256, 0, 0
0, 0.17800, 2045.05, 19.0256, 2045.05, 19.0256, 2045.05, 19.0256, 0, 0
0, 0.17800, 2045.05, 19.0256, 2045.05, 19.0256, 2045.05, 19.0256, 0, 0
0, 0.17900, 2045.05, 19.0256, 2045.05, 19.0256, 2045.05, 19.0256, 0, 0
0, 0.17900, 2045.05, 19.0256, 2045.05, 19.0256, 2045.05, 19.0256, 0, 0
0, 0.18000, 2045.05, 19.0256, 2045.05, 19.0256, 2045.05, 19.0256, 0, 0
0, 0.18000, 2045.05, 19.0256, 2045.05, 19.0256, 2045.05, 19.0256, 0, 0
0, 0.18100, 2045.05, 19.0256, 2045.05, 19.0256, 2045.05, 19.0256, 0, 0
0, 0.18100, 2045.05, 19.0256, 2045.05, 19.0256, 2045.05, 19.0256, 0, 0
0, 0.18200, 2045.05, 19.0256, 2045.05, 19.0256, 2045.05, 19.0256, 0, 0
0, 0.18200, 2045.05, 19.0256, 2045.05, 19.0256, 2045.05, 19.0256, 0, 0
0, 0.18300, 2045.05, 19.0256, 2045.05, 19.0256, 2045.05, 19.0256, 0, 0
0, 0.18300, 2045.05, 19.0256, 2045.05, 19.0256, 2045.05, 19.0256, 0, 0
0, 0.18400, 2045.05, 19.0256, 2045.05, 19.0256, 2045.05, 19.0256, 0, 0
0, 0.18400, 2045.05, 19.0256, 2045.05, 19.0256, 2045.05, 19.0256, 0, 0
0, 0.18500, 2045.05, 19.0256, 2045.05, 19.0256, 2045.05, 19.0256, 0, 0
0, 0.18500, 2045.05, 19.0256, 2045.05, 19.0256, 2045.05, 19.0256, 0, 0
0, 0.18600, 2045.05, 19.0256, 2045.05, 19.0256, 2045.05, 19.0256, 0, 0
0, 0.18600, 2045.05, 19.0256, 2045.05, 19.0256, 2045.05, 19.0256, 0, 0
0, 0.18700, 2045.05, 19.0256, 2045.05, 19.0256, 2045.05, 19.0256, 0, 0
0, 0.18700, 2045.05, 19.0256, 2045.05, 19.0256, 2045.05, 19.0256, 0, 0
0, 0.18800, 2045.05, 19.0256, 2045.05, 19.0256, 2045.05, 19.0256, 0, 0
0, 0.18800, 2045.05, 19.0256, 2045.05, 19.0256, 2045.05, 19.0256, 0, 0
0, 0.18900, 2045.05, 19.0256, 2045.05, 19.0256, 2045.05, 19.0256, 0, 0
0, 0.18900, 2045.05, 19.0256, 2045.05, 19.0256, 2045.05, 19.0256, 0, 0
0, 0.19000, 2045.05, 19.0256, 2045.05, 19.0256, 2045.05, 19.0256, 0, 0
0, 0.19000, 2045.05, 19.0256, 2045.05, 19.0256, 2045.05, 19.0256, 0, 0
0, 0.19100, 2045.05, 19.0256, 2045.05, 19.0256, 2045.05, 19.0256, 0, 0
0, 0.19100, 2045.05, 19.0256, 2045.05, 19.0256, 2045.05, 19.0256, 0, 0
0, 0.19200, 2045.05, 19.0256, 2045.05, 19.0256, 2045.05, 19.0256, 0, 0
0, 0.19200, 2045.05, 19.0256, 2045.05, 19.0256, 2045.05, 19.0256, 0, 0
0, 0.19300, 2045.05, 19.0256, 2045.05, 19.0256, 2045.05, 19.0256, 0, 0
0, 0.19300, 2045.05, 19.0256, 2045.05, 19.0256, 2045.05, 19.0256, 0, 0
0, 0.19400, 2045.05, 19.0256, 2045.05, 19.0256, 2045.05, 19.0256, 0, 0
0, 0.19400, 2045.05, 19.0256, 2045.05, 19.0256, 2045.05, 19.0256, 0, 0
0, 0.19500, 2045.05, 19.0256, 2045.05, 19.0256, 2045.05, 19.0256, 0, 0
0, 0.19500, 2045.05, 19.0256, 2045.05, 19.0256, 2045.05, 19.0256, 0, 0
0, 0.19600, 2045.05, 19.0256, 2045.05, 19.0256, 2045.05, 19.0256, 0, 0
0, 0.19600, 2045.05, 19.0256, 2045.05, 19.0256, 2045.05, 19.0256, 0, 0
0, 0.19700, 2045.05, 19.0256, 2045.05, 19.0256, 2045.05, 19.0256, 0, 0
0, 0.19700, 2045.05, 19.0256, 2045.05, 19.0256, 2045.05, 19.0256, 0, 0
0, 0.19800, 2045.05, 19.0256, 2045.05, 19.0256, 2045.05, 19.0256, 0, 0
0, 0.19800, 2045.05, 19.0256, 2045.05, 19.0256, 2045.05, 19.0256, 0, 0
0, 0.19900, 2045.05, 19.0256, 2045.05, 19.0256, 2045.05, 19.0256, 0, 0
0, 0.19900, 2045.05, 19.0256, 2045.05, 19.0256, 2045.05, 19.0256, 0, 0
0, 0.20000, 2045, 19.0241, 2045, 19.0241, 2045, 19.0241, 0, 0
0, 0.20000, 2045, 19.0241, 2045, 19.0241, 2045, 19.0241, 0, 0
0, 0.20000, 2045.04, 19.0254, 2045.04, 19.0254, 2045.04, 19.0254, 0, 0
0, 0.20100, 2044.96, 19.0232, 2044.96, 19.0232, 2044.96, 19.0232, 0, 0
0, 0.20100, 2044.96, 19.0232, 2044.96, 19.0232, 2044.96, 19.0232, 0, 0
0, 0.20200, 2045.04, 19.0252, 2045.04, 19.0252, 2045.04, 19.0252, 0, 0
0, 0.20200, 2045.04, 19.0252, 2045.04, 19.0252, 2045.04, 19.0252, 0, 0
0, 0.20300, 2045.05, 19.0255, 2045.05, 19.0255, 2045.05, 19.0255, 0, 0
0, 0.20300, 2045.05, 19.0255, 2045.05, 19.0255, 2045.05, 19.0255, 0, 0
0, 0.20400, 2045.05, 19.0256, 2045.05, 19.0256, 2045.05, 19.0256, 0, 0
0, 0.20400, 2045.05, 19.0256, 2045.05, 19.0256, 2045.05, 19.0256, 0, 0
0, 0.20500, 2045.05, 19.0256, 2045.05, 19.0256, 2045.05, 19.0256, 0, 0
0, 0.20500, 2045.05, 19.0256, 2045.05, 19.0256, 2045.05, 19.0256, 0, 0
0, 0.20600, 2045.05, 19.0256, 2045.05, 19.0256, 2045.05, 19.0256, 0, 0
0, 0.20600, 2045.05, 19.0256, 2045.05, 19.0256, 2045.05, 19.0256, 0, 0
0, 0.20700, 2045.05, 19.0256, 2045.05, 19.0256, 2045.05, 19.0256, 0, 0
0, 0.20700, 2045.05, 19.0256, 2045.05, 19.0256, 2045.05, 19.0256, 0, 0
0, 0.20800, 2045.05, 19.0256, 2045.05, 19.0256, 2045.05, 19.0256, 0, 0
0, 0.20800, 2045.05, 19.0256, 2045.05, 19.0256, 2045.05, 19.0256, 0, 0
0, 0.20900, 2045.05, 19.0256, 2045.05, 19.0256, 2045.05, 19.0256, 0, 0
0, 0.20900, 2045.05, 19.0256, 2045.05, 19.0256, 2045.05, 19.0256, 0, 0
0, 0.21000, 2045.05, 19.0256, 2045.05, 19.0256, 2045.05, 19.0256, 0, 0
0, 0.21000, 2045.05, 19.0256, 2045.05, 19.0256, 2045.05, 19.0256, 0, 0
0, 0.21100, 2045.05, 19.0256, 2045.05, 19.0256, 2045.05, 19.0256, 0, 0
0, 0.21100, 2045.05, 19.0256, 2045.05, 19.0256, 2045.05, 19.0256, 0, 0
0, 0.21200, 2045.05, 19.0256, 2045.05, 19.0256, 2045.05, 19.0256, 0, 0
0, 0.21200, 2045.05, 19.0256, 2045.05, 19.0256, 2045.05, 19.0256, 0, 0
0, 0.21300, 2045.05, 19.0256, 2045.05, 19.0256, 2045.05, 19.0256, 0, 0
0, 0.21300, 2045.05, 19.0256, 2045.05, 19.0256, 2045.05, 19.0256, 0, 0
0, 0.21400, 2045.05, 19.0256, 2045.05, 19.0256, 2045.05, 19.0256, 0, 0
0, 0.21400, 2045.05, 19.0256, 2045.05, 19.0256, 2045.05, 19.0256, 0, 0
0, 0.21500, 2045.05, 19.0256, 2045.05, 19.0256, 2045.05, 19.0256, 0, 0
0, 0.21500, 2045.05, 19.0256, 2045.05, 19.0256, 2045.05, 19.0256, 0, 0
0, 0.21600, 2045.05, 19.0256, 2045.05, 19.0256, 2045.05, 19.0256, 0, 0
0, 0.21600, 2045.05, 19.0256, 2045.05, 19.0256, 2045.05, 19.0256, 0, 0
0, 0.21700, 2045.05, 19.0256, 2045.05, 19.0256, 2045.05, 19.0256, 0, 0
0, 0.21700, 2045.05, 19.0256, 2045.05, 19.0256, 2045.05, 19.0256, 0, 0
0, 0.21800, 2045.05, 19.0256, 2045.05, 19.0256, 2045.05, 19.0256, 0, 0
0, 0.21800, 2045.05, 19.0256, 2045.05, 19.0256, 2045.05, 19.0256, 0, 0
0, 0.21900, 2045.05, 19.0256, 2045.05, 19.0256, 2045.05, 19.0256, 0, 0
0, 0.21900, 2045.05, 19.0256, 2045.05, 19.0256, 2045.05, 19.0256, 0, 0
0, 0.22000, 2045.05, 19.0256, 2045.05, 19.0256, 2045.05, 19.0256, 0, 0
0, 0.22000, 2045.05, 19.0256, 2045.05, 19.0256, 2045.05, 19.0256, 0, 0
0, 0.22100, 2045.05, 19.0256, 2045.05, 19.0256, 2045.05, 19.0256, 0, 0
0, 0.22100, 2045.05, 19.0256, 2045.05, 19.0256, 2045.05, 19.0256, 0, 0
0, 0.22200, 2045.05, 19.0256, 2045.05, 19.0256, 2045.05, 19.0256, 0, 0
0, 0.22200, 2045.05, 19.0256, 2045.05, 19.0256, 2045.05, 19.0256, 0, 0
0, 0.22300, 2045.05, 19.0256, 2045.05, 19.0256, 2045.05, 19.0256, 0, 0
0, 0.22300, 2045.05, 19.0256, 2045.05, 19.0256, 2045.05, 19.0256, 0, 0
0, 0.22400, 2045.05, 19.0256, 2045.05, 19.0256, 2045.05, 19.0256, 0, 0
0, 0.22400, 2045.05, 19.0256, 2045.05, 19.0256, 2045.05, 19.0256, 0, 0
0, 0.22500, 2045.05, 19.0256, 2045.05, 19.0256, 2045.05, 19.0256, 0, 0
0, 0.22500, 2045.05, 19.0256, 2045.05, 19.0256, 2045.05, 19.0256, 0, 0
0, 0.22600, 2045.05, 19.0256, 2045.05, 19.0256, 2045.05, 19.0256, 0, 0
0, 0.22600, 2045.05, 19.0256, 2045.05, 19.0256, 2045.05, 19.0256, 0, 0
0, 0.22700, 2045.05, 19.0256, 2045.05, 19.0256, 2045.05, 19.0256, 0, 0
0, 0.22700, 2045.05, 19.0256, 2045.05, 19.0256, 2045.05, 19.0256, 0, 0
0, 0.22800, 2045.05, 19.0256, 2045.05, 19.0256, 2045.05, 19.0256, 0, 0
0, 0.22800, 2045.05, 19.0256, 2045.05, 19.0256, 2045.05, 19.0256, 0, 0
0, 0.22900, 2045.05, 19.0256, 2045.05, 19.0256, 2045.05, 19.0256, 0, 0
0, 0.22900, 2045.05, 19.0256, 2045.05, 19.0256, 2045.05, 19.0256, 0, 0
0, 0.23000, 2045.05, 19.0256, 2045.05, 19.0256, 2045.05, 19.0256, 0, 0
0, 0.23000, 2045.05, 19.0256, 2045.05, 19.0256, 2045.05, 19.0256, 0, 0
0, 0.23100, 2045.05, 19.0256, 2045.05, 19.0256, 2045.05, 19.0256, 0, 0
0, 0.23100, 2045.05, 19.0256, 2045.05, 19.0256, 2045.05, 19.0256, 0, 0
0, 0.23200, 2045.05, 19.0256, 2045.05, 19.0256, 2045.05, 19.0256, 0, 0
0, 0.23200, 2045.05, 19.0256, 2045.05, 19.0256, 2045.05, 19.0256, 0, 0
0, 0.23300, 2045.05, 19.0256, 2045.05, 19.0256, 2045.05, 19.0256, 0, 0
0, 0.23300, 2045.05, 19.0256, 2045.05, 19.0256, 2045.05, 19.0256, 0, 0
0, 0.23400, 2045.05, 19.0256, 2045.05, 19.0256, 2045.05, 19.0256, 0, 0
0, 0.23400, 2045.05, 19.0256, 2045.05, 19.0256, 2045.05, 19.0256, 0, 0
0, 0.23500, 2045.05, 19.0256, 2045.05, 19.0256, 2045.05, 19.0256, 0, 0
0, 0.23500, 2045.05, 19.0256, 2045.05, 19.0256, 2045.05, 19.0256, 0, 0
0, 0.23600, 2045.05, 19.0256, 2045.05, 19.0256, 2045.05, 19.0256, 0, 0
0, 0.23600, 2045.05, 19.0256, 2045.05, 19.0256, 2045.05, 19.0256, 0, 0
0, 0.23700, 2045.05, 19.0256, 2045.05, 19.0256, 2045.05, 19.0256, 0, 0
0, 0.23700, 2045.05, 19.0256, 2045.05, 19.0256, 2045.05, 19.0256, 0, 0
0, 0.23800, 2045.05, 19.0256, 2045.05, 19.0256, 2045.05, 19.0256, 0, 0
0, 0.23800, 2045.05, 19.0256, 2045.05, 19.0256, 2045.05, 19.0256, 0, 0
0, 0.23900, 2045.05, 19.0256, 2045.05, 19.0256, 2045.05, 19.0256, 0, 0
